!Agilent Technologies,N5225A,MY51441201,A.09.90.19
!Agilent N5225A: A.09.90.19
!Date: Wednesday, April 25, 2018 14:38:58
!Correction: S11(Full 1 Port(1)) 
!S1P File: Measurement: S11:
# Hz S  dB   R 50
87500000 -0.062490385 -130.98689
87602500 -0.15083352 -131.03978
87705000 -0.078620888 -131.10933
87807500 -0.11018042 -131.67752
87910000 -0.057305254 -131.31203
88012500 -0.11029439 -131.16403
88115000 -0.077416174 -131.52856
88217500 -0.083612181 -131.37671
88320000 -0.021433633 -131.52531
88422500 -0.11396382 -131.39813
88525000 -0.081429467 -132.0414
88627500 -0.088492215 -132.06624
88730000 -0.068133347 -131.69955
88832500 -0.080464035 -131.70764
88935000 -0.052739773 -131.5174
89037500 -0.099280864 -131.53604
89140000 -0.089975014 -131.83321
89242500 -0.072749048 -131.59517
89345000 -0.0084680496 -132.22987
89447500 -0.039155461 -132.01202
89550000 -0.035734147 -132.26637
89652500 -0.0079220207 -132.33904
89755000 -0.017084448 -131.8791
89857500 -0.10258447 -132.36455
89960000 -0.041286744 -132.49478
90062500 -0.012441696 -132.56075
90165000 -0.047194496 -132.68451
90267500 -0.066645987 -132.80612
90370000 -0.059730161 -132.86792
90472500 -0.060290534 -133.08034
90575000 -0.058232605 -132.65231
90677500 0.0087024244 -133.07733
90780000 -0.052227672 -132.99741
90882500 -0.091706477 -132.84074
90985000 -0.049807269 -133.47331
91087500 -0.040331881 -133.02289
91190000 -0.013647356 -133.4666
91292500 -0.051172215 -133.72955
91395000 -0.064878382 -133.6937
91497500 -0.040926609 -133.24214
91600000 -0.071546204 -133.56046
91702500 0.032085259 -133.76743
91805000 -0.063118502 -133.74121
91907500 -0.037878871 -133.79295
92010000 -0.03862413 -133.94344
92112500 -0.059514724 -134.01808
92215000 0.012198053 -133.93541
92317500 -0.032173615 -133.85466
92420000 -0.013958262 -134.28522
92522500 -0.017106984 -134.26439
92625000 -0.054713175 -133.98625
92727500 -0.0096850488 -134.20607
92830000 -0.0043498147 -134.09346
92932500 -0.071505249 -134.30446
93035000 -0.03338195 -134.65297
93137500 -0.021230716 -134.5313
93240000 -0.079878882 -134.63858
93342500 -0.020355968 -134.57582
93445000 -0.058902863 -134.58493
93547500 -0.10394693 -134.70537
93650000 -0.050764039 -134.71507
93752500 -0.013995404 -134.80089
93855000 0.023051158 -135.13402
93957500 0.00093167211 -135.23613
94060000 -0.018915312 -134.8985
94162500 0.004100373 -135.33499
94265000 -0.082969829 -135.18021
94367500 -0.019426024 -135.12917
94470000 0.0062287403 -135.37886
94572500 -0.024227543 -135.60342
94675000 -0.076131009 -135.11333
94777500 -0.054465763 -135.67949
94880000 -0.083051436 -135.41669
94982500 -0.020595463 -135.66055
95085000 -0.0082921721 -135.68279
95187500 -0.0036933681 -135.57845
95290000 -0.0047906674 -135.86266
95392500 0.012878294 -135.88776
95495000 -0.018932462 -135.96666
95597500 0.0038091801 -135.73366
95700000 -0.085956015 -135.99016
95802500 -0.046613254 -135.91826
95905000 0.0028593258 -136.1308
96007500 -0.016620385 -136.18741
96110000 -0.0034341866 -136.51122
96212500 -0.026400298 -136.287
96315000 -0.027083725 -136.26506
96417500 0.032916971 -136.4279
96520000 -0.055035219 -136.44371
96622500 -0.038332902 -136.27571
96725000 -0.020961087 -136.29631
96827500 -0.072653696 -136.72063
96930000 -0.027709169 -136.58113
97032500 -0.019713989 -136.52469
97135000 -0.051569127 -136.94304
97237500 -0.032872479 -136.93741
97340000 0.0012610884 -136.8903
97442500 0.0064307968 -136.68977
97545000 -0.019317018 -137.08467
97647500 0.058399826 -137.20073
97750000 -0.057534516 -137.39532
97852500 -0.041391261 -137.27605
97955000 -0.079130352 -137.47755
98057500 -0.025197158 -137.44147
98160000 -0.0047808527 -137.72052
98262500 -0.04353942 -137.41022
98365000 -0.012635882 -137.60812
98467500 0.015864197 -137.65352
98570000 -0.02135534 -137.61377
98672500 0.010362522 -137.42308
98775000 -0.027095634 -137.75932
98877500 -0.057350852 -137.99945
98980000 -0.038020883 -138.05894
99082500 -0.00032792249 -138.03767
99185000 -0.02076803 -138.06877
99287500 -0.022190999 -138.23074
99390000 -0.021464862 -137.82956
99492500 0.012226288 -138.10228
99595000 -0.060308855 -138.19296
99697500 -0.024932168 -138.2108
99800000 -0.024467079 -137.96484
99902500 -0.066592462 -138.31543
100005000 -0.038665663 -138.11176
100107500 -0.11721869 -138.61795
100210000 -0.025208201 -138.49661
100312500 -0.0042897332 -138.74883
100415000 0.0052933013 -138.59438
100517500 -0.038369279 -138.33548
100620000 -0.011153921 -138.85567
100722500 -0.026936583 -138.95631
100825000 -0.088092782 -138.82144
100927500 -0.026885478 -138.78368
101030000 -0.040062565 -138.83784
101132500 -0.046503771 -138.92268
101235000 -0.034904793 -138.95755
101337500 0.00092999818 -139.42999
101440000 0.0087813428 -139.41168
101542500 -0.045161098 -138.83937
101645000 -0.080686606 -139.51231
101747500 0.00031487489 -139.25595
101850000 -0.041938066 -139.38284
101952500 -0.018184189 -139.16983
102055000 -0.031306207 -139.54745
102157500 -0.040641516 -139.36041
102260000 0.013682487 -139.44356
102362500 -0.038966127 -139.61392
102465000 -0.009168867 -139.78041
102567500 -0.033415742 -139.57466
102670000 -0.019921476 -139.57051
102772500 -0.019073749 -139.89787
102875000 -0.014429471 -139.89966
102977500 -0.034481708 -139.76259
103080000 -0.023497026 -139.90221
103182500 0.00042907408 -139.94539
103285000 0.024240786 -139.79657
103387500 -0.019675845 -140.15166
103490000 -0.022725901 -140.37938
103592500 -0.078109905 -140.21335
103695000 0.0067779627 -140.11461
103797500 -0.03702284 -140.4521
103900000 0.0030144772 -140.44533
104002500 -0.023454832 -140.44588
104105000 -0.00075386069 -140.60954
104207500 -0.0087392693 -140.56233
104310000 0.00036194504 -140.6606
104412500 -0.063355811 -140.67288
104515000 0.014993769 -140.42046
104617500 -0.013518064 -140.75352
104720000 -0.033868667 -140.74564
104822500 -0.038970008 -140.79796
104925000 -0.010218931 -140.67558
105027500 -0.04250925 -141.09401
105130000 0.011228377 -141.02119
105232500 -0.018720068 -140.96906
105335000 -0.033804834 -141.36691
105437500 -0.030567689 -140.83034
105540000 -0.015843116 -141.33635
105642500 -0.033208258 -141.27029
105745000 -0.033274371 -141.26625
105847500 -0.019695355 -141.01718
105950000 -0.058111604 -141.44432
106052500 -0.01567011 -141.26036
106155000 0.0030070061 -141.26036
106257500 -0.032967377 -141.3748
106360000 -0.036531638 -141.71007
106462500 -0.0069914772 -141.57973
106565000 -0.012920797 -141.89658
106667500 -0.028821748 -141.28572
106770000 0.017357593 -141.61893
106872500 -0.025265828 -141.9622
106975000 -0.020455506 -142.0056
107077500 -0.022435613 -141.83342
107180000 0.019030979 -141.78877
107282500 0.0061215558 -141.96466
107385000 0.01217017 -142.23685
107487500 -0.057295229 -142.38994
107590000 -0.058994759 -142.46005
107692500 -0.072572209 -142.19621
107795000 -0.027089329 -142.08041
107897500 -0.021075482 -141.93187
108000000 -0.059201222 -142.31157
