!Agilent Technologies,N5225A,MY51441201,A.09.90.19
!Agilent N5225A: A.09.90.19
!Date: Wednesday, April 25, 2018 16:15:21
!Correction: S11(Full 1 Port(1)) 
!S1P File: Measurement: S11:
# Hz S  dB   R 50
87500000 -2.5786793 92.196442
87602500 -2.56586 92.087532
87705000 -2.6928205 91.706482
87807500 -2.6047471 91.552788
87910000 -2.6477942 91.667603
88012500 -2.6536229 90.675575
88115000 -2.6197114 91.347343
88217500 -2.6467607 90.611847
88320000 -2.6791294 90.583527
88422500 -2.6313124 89.987076
88525000 -2.695672 89.453636
88627500 -2.6682172 89.199318
88730000 -2.7302682 88.889816
88832500 -2.7163401 88.51725
88935000 -2.8217826 88.464806
89037500 -2.7130237 87.877617
89140000 -2.7127707 87.365265
89242500 -2.7819309 87.354561
89345000 -2.7328455 87.228203
89447500 -2.7166474 86.941101
89550000 -2.8272552 86.193344
89652500 -2.8358803 85.850319
89755000 -2.7948687 85.594376
89857500 -2.7838063 85.656326
89960000 -2.8082681 85.436775
90062500 -2.8758039 84.917252
90165000 -2.8379779 84.096664
90267500 -2.915062 84.639481
90370000 -2.8832579 84.124084
90472500 -2.9209349 83.566795
90575000 -2.8802009 83.396194
90677500 -2.9271569 83.087982
90780000 -2.9192338 82.190331
90882500 -2.9318717 82.127373
90985000 -2.8870633 82.19577
91087500 -2.8685694 81.289688
91190000 -2.9096413 81.206467
91292500 -2.9676185 80.981972
91395000 -2.9252183 80.523468
91497500 -2.9565527 79.970673
91600000 -2.9588032 79.924103
91702500 -2.9568613 79.697395
91805000 -3.0261807 78.956268
91907500 -2.9842923 78.96386
92010000 -3.0390165 78.509949
92112500 -3.0168171 78.132683
92215000 -3.107753 77.489113
92317500 -3.0628152 76.905273
92420000 -3.0646467 76.896965
92522500 -3.0709126 76.570412
92625000 -3.0595918 76.28035
92727500 -3.0788991 75.772453
92830000 -3.1508601 76.03212
92932500 -3.1000259 75.137627
93035000 -3.150701 74.64222
93137500 -3.158206 74.874901
93240000 -3.1803708 74.037025
93342500 -3.2280455 73.400024
93445000 -3.1190069 73.44873
93547500 -3.2083719 72.62365
93650000 -3.2033219 72.701843
93752500 -3.2388461 72.124397
93855000 -3.2895131 72.100037
93957500 -3.2008486 71.493774
94060000 -3.2556901 71.07708
94162500 -3.2552288 70.552872
94265000 -3.2470503 69.998055
94367500 -3.2837675 69.506752
94470000 -3.2768364 69.338837
94572500 -3.3528531 69.029129
94675000 -3.3153553 68.61039
94777500 -3.3628626 68.233444
94880000 -3.303581 67.764664
94982500 -3.3835971 66.981422
95085000 -3.3514166 66.844299
95187500 -3.3463724 66.407753
95290000 -3.3626847 65.759804
95392500 -3.3782849 65.809677
95495000 -3.438755 65.288109
95597500 -3.4723315 64.944809
95700000 -3.358032 64.295265
95802500 -3.4100971 64.045296
95905000 -3.4712763 63.910961
96007500 -3.4552388 62.945377
96110000 -3.4430306 62.645348
96212500 -3.4555142 62.286934
96315000 -3.5412688 61.918945
96417500 -3.5656648 61.515846
96520000 -3.5165904 60.993099
96622500 -3.5118203 60.290279
96725000 -3.5592091 60.268715
96827500 -3.5705702 60.01701
96930000 -3.5944059 59.476715
97032500 -3.5375199 58.840542
97135000 -3.586942 58.444695
97237500 -3.6155152 57.996864
97340000 -3.6218741 57.645042
97442500 -3.6130645 57.206318
97545000 -3.6086571 56.755444
97647500 -3.6844451 56.582058
97750000 -3.6412227 56.087418
97852500 -3.6180372 55.558964
97955000 -3.6948235 55.441494
98057500 -3.7519982 54.241634
98160000 -3.6253085 53.686237
98262500 -3.7499571 53.540035
98365000 -3.7446132 53.258713
98467500 -3.7202761 52.490101
98570000 -3.7296183 52.268703
98672500 -3.6751504 51.457863
98775000 -3.7693892 51.225517
98877500 -3.8028951 50.867512
98980000 -3.7594004 50.1759
99082500 -3.802006 50.258095
99185000 -3.7849066 49.371559
99287500 -3.7733796 49.001171
99390000 -3.8195302 48.491505
99492500 -3.8180954 48.195637
99595000 -3.8537991 47.31543
99697500 -3.8543072 46.50621
99800000 -3.8602006 46.851509
99902500 -3.8210614 45.939919
100005000 -3.879611 45.620857
100107500 -3.9103029 45.32814
100210000 -3.8596177 44.484821
100312500 -3.9453216 43.948479
100415000 -3.9523776 43.403751
100517500 -3.8949203 42.524448
100620000 -3.937012 42.75835
100722500 -3.9262524 42.266861
100825000 -3.9383116 41.503262
100927500 -3.9322674 40.877468
101030000 -3.9554889 40.40694
101132500 -3.9852331 40.242428
101235000 -3.9785457 39.428455
101337500 -3.9866686 39.097054
101440000 -3.9999263 38.743893
101542500 -4.0197706 38.078995
101645000 -3.9656525 37.547489
101747500 -4.0159354 36.611839
101850000 -4.0256486 36.398113
101952500 -4.0401225 35.95575
102055000 -4.0149879 35.633263
102157500 -4.0151038 34.868855
102260000 -4.0401392 34.332165
102362500 -4.0608778 33.753048
102465000 -4.0379992 33.130909
102567500 -4.0349226 32.762726
102670000 -4.0321784 32.181076
102772500 -4.0842171 32.147121
102875000 -4.1580954 31.021944
102977500 -4.0286036 31.09906
103080000 -4.0576658 30.07399
103182500 -4.1170993 29.495104
103285000 -4.0683775 29.126526
103387500 -4.0691586 28.442719
103490000 -4.1295533 28.495275
103592500 -4.0381947 27.270967
103695000 -4.1468911 27.033033
103797500 -4.1653466 26.554733
103900000 -4.1727767 25.81761
104002500 -4.1370955 25.232882
104105000 -4.115448 24.635015
104207500 -4.1124949 24.251154
104310000 -4.1838713 23.565714
104412500 -4.1588464 23.324934
104515000 -4.1891179 22.618217
104617500 -4.1597214 22.193134
104720000 -4.1405387 21.168633
104822500 -4.1450086 20.831724
104925000 -4.1334987 19.99807
105027500 -4.2091093 19.896646
105130000 -4.165513 19.37137
105232500 -4.18961 18.534985
105335000 -4.1881714 17.976072
105437500 -4.1980186 17.47477
105540000 -4.1690111 16.771347
105642500 -4.1515036 16.494568
105745000 -4.1496053 15.762332
105847500 -4.2091856 15.536961
105950000 -4.1807575 14.698164
106052500 -4.1389112 14.286942
106155000 -4.1801167 13.713759
106257500 -4.1977572 13.457952
106360000 -4.1920266 12.535254
106462500 -4.189095 11.786763
106565000 -4.2029047 11.39019
106667500 -4.1702075 10.850272
106770000 -4.1721125 10.265369
106872500 -4.164258 9.8569489
106975000 -4.1707854 9.226738
107077500 -4.1558428 8.6832151
107180000 -4.1676903 7.9397125
107282500 -4.143301 7.6112189
107385000 -4.1453557 7.2387881
107487500 -4.1967402 6.2823668
107590000 -4.1618023 5.7918887
107692500 -4.1862445 5.3466163
107795000 -4.1728253 4.7847133
107897500 -4.13311 4.1019077
108000000 -4.1380577 3.5658908
