!Agilent Technologies,N5225A,MY51441201,A.09.90.19
!Agilent N5225A: A.09.90.19
!Date: Wednesday, April 25, 2018 14:33:05
!Correction: S11(Full 1 Port(1)) 
!S1P File: Measurement: S11:
# Hz S  dB   R 50
87500000 -2.4003658 91.920158
87602500 -2.3700402 91.77887
87705000 -2.4610202 91.484291
87807500 -2.4960403 91.532455
87910000 -2.4349 91.37838
88012500 -2.4508848 90.702789
88115000 -2.4658656 91.23172
88217500 -2.4432731 90.524895
88320000 -2.4945979 90.394455
88422500 -2.4350529 89.922119
88525000 -2.5198579 89.620865
88627500 -2.478828 89.351631
88730000 -2.5474916 88.72802
88832500 -2.5544837 88.551704
88935000 -2.5688941 88.323242
89037500 -2.510952 87.34671
89140000 -2.4914777 87.126785
89242500 -2.6105433 87.537018
89345000 -2.5730495 86.919556
89447500 -2.5489302 87.017555
89550000 -2.6311193 86.43531
89652500 -2.6717389 85.914093
89755000 -2.6677656 85.238403
89857500 -2.6483712 85.431953
89960000 -2.5845895 85.353607
90062500 -2.681632 84.786057
90165000 -2.5865541 83.986923
90267500 -2.678201 84.460014
90370000 -2.6913941 83.907387
90472500 -2.7416003 83.466339
90575000 -2.6951256 83.070274
90677500 -2.7697918 82.943642
90780000 -2.6728005 82.091537
90882500 -2.7080534 82.020691
90985000 -2.7265432 82.325859
91087500 -2.7359724 81.568527
91190000 -2.736897 81.20816
91292500 -2.7596314 81.240662
91395000 -2.7169857 80.449463
91497500 -2.7722611 79.802979
91600000 -2.7897305 79.468735
91702500 -2.7740955 79.786133
91805000 -2.7905421 78.960167
91907500 -2.7774842 79.144493
92010000 -2.8484421 78.639236
92112500 -2.8067942 78.242851
92215000 -2.8893816 77.59404
92317500 -2.8485868 77.162773
92420000 -2.8861644 76.8629
92522500 -2.8750412 76.319191
92625000 -2.8794887 76.581429
92727500 -2.8667934 75.800812
92830000 -2.9642718 75.740616
92932500 -2.9326472 74.885597
93035000 -2.8738866 74.802719
93137500 -2.9653237 74.720787
93240000 -2.9161665 74.274834
93342500 -3.0176654 73.125839
93445000 -2.9133577 73.132599
93547500 -2.9533224 72.773972
93650000 -3.0214555 72.410248
93752500 -3.0414941 72.088211
93855000 -3.0424862 72.215492
93957500 -3.0278175 71.144745
94060000 -3.0442626 70.758621
94162500 -3.0271888 70.585258
94265000 -3.02391 69.740562
94367500 -3.0876803 69.425629
94470000 -3.0855789 69.289558
94572500 -3.1139205 69.305794
94675000 -3.0821948 68.44915
94777500 -3.1683471 68.478661
94880000 -3.0873678 67.685677
94982500 -3.1711369 67.279243
95085000 -3.1283436 66.3629
95187500 -3.0910747 66.541382
95290000 -3.1734025 65.994881
95392500 -3.2289491 65.947411
95495000 -3.1752927 65.268028
95597500 -3.2336183 64.974709
95700000 -3.16065 64.343887
95802500 -3.2038066 63.776325
95905000 -3.2115502 63.265141
96007500 -3.220335 63.108566
96110000 -3.238251 62.925167
96212500 -3.2393098 62.342594
96315000 -3.3030632 61.605629
96417500 -3.3390286 61.346218
96520000 -3.2309289 60.787277
96622500 -3.298605 60.659115
96725000 -3.315841 60.319996
96827500 -3.2877915 59.796257
96930000 -3.3261912 59.419655
97032500 -3.3398757 58.764675
97135000 -3.3565173 58.491554
97237500 -3.3678858 58.121845
97340000 -3.434391 57.749508
97442500 -3.3664095 56.853825
97545000 -3.4324949 56.585445
97647500 -3.4446378 56.229309
97750000 -3.4165785 56.050545
97852500 -3.4041924 55.630444
97955000 -3.457849 55.391338
98057500 -3.5693395 54.169041
98160000 -3.3893809 53.727566
98262500 -3.4950256 53.664814
98365000 -3.5007167 53.142479
98467500 -3.4903889 52.827267
98570000 -3.5493433 51.902798
98672500 -3.4603615 51.845459
98775000 -3.5341768 51.292728
98877500 -3.5397329 51.101719
98980000 -3.5151129 50.075314
99082500 -3.5200813 49.917542
99185000 -3.5703218 49.585758
99287500 -3.5158792 48.805641
99390000 -3.5619459 48.721691
99492500 -3.6406744 48.059914
99595000 -3.5835373 47.604771
99697500 -3.5615251 46.702801
99800000 -3.5865612 46.612026
99902500 -3.5737131 46.081715
100005000 -3.5971851 45.245483
100107500 -3.6404226 45.524914
100210000 -3.6710079 44.71254
100312500 -3.6817472 44.063576
100415000 -3.7081769 43.2812
100517500 -3.6316779 43.078842
100620000 -3.6385038 42.539211
100722500 -3.6817038 42.339352
100825000 -3.6990221 41.493324
100927500 -3.6504083 41.082603
101030000 -3.6895845 40.299095
101132500 -3.7030594 40.109829
101235000 -3.7279935 39.203846
101337500 -3.7120051 39.197842
101440000 -3.720397 38.320881
101542500 -3.7183747 37.974628
101645000 -3.7434876 37.598873
101747500 -3.8080208 37.258896
101850000 -3.7014165 36.652809
101952500 -3.8015003 36.018593
102055000 -3.7576857 35.672874
102157500 -3.7474091 34.718811
102260000 -3.7549932 34.504875
102362500 -3.7863657 33.940147
102465000 -3.8377576 33.396751
102567500 -3.7845123 32.998547
102670000 -3.7926712 32.414608
102772500 -3.800174 32.035515
102875000 -3.908026 31.431396
102977500 -3.8032432 30.738863
103080000 -3.849653 30.448734
103182500 -3.8490644 29.685072
103285000 -3.7925584 28.988586
103387500 -3.8346784 28.467175
103490000 -3.8426018 28.59963
103592500 -3.8654077 27.24407
103695000 -3.8812432 27.129339
103797500 -3.891722 26.750595
103900000 -3.8885949 25.664057
104002500 -3.8740795 25.258884
104105000 -3.8710346 25.201717
104207500 -3.8666987 24.506147
104310000 -3.8941035 23.940403
104412500 -3.9008625 23.444046
104515000 -3.8845837 22.804039
104617500 -3.8620093 22.408306
104720000 -3.8537991 21.249342
104822500 -3.8820333 20.873344
104925000 -3.847055 20.691782
105027500 -3.9386783 20.258514
105130000 -3.9437509 19.462963
105232500 -3.8705916 18.766546
105335000 -3.867451 18.12533
105437500 -3.9308765 17.694275
105540000 -3.9042385 17.048134
105642500 -3.8775747 16.95365
105745000 -3.853317 16.174341
105847500 -3.9176879 15.767614
105950000 -3.8797064 14.971965
106052500 -3.8965065 14.50877
106155000 -3.9242768 13.935754
106257500 -3.9317966 13.602638
106360000 -3.9282973 12.551598
106462500 -3.9426794 12.177285
106565000 -3.9040194 11.538973
106667500 -3.9379549 11.259328
106770000 -3.8634107 10.663382
106872500 -3.9175789 9.8616686
106975000 -3.9488792 9.3926907
107077500 -3.8795288 8.9766245
107180000 -3.9043472 8.2491045
107282500 -3.8604674 7.843914
107385000 -3.8916738 7.5299354
107487500 -3.9107478 6.7104669
107590000 -3.9139977 6.1442852
107692500 -3.9206417 5.9014492
107795000 -3.8648388 5.0999904
107897500 -3.8959844 4.4288039
108000000 -3.9086204 4.0080018
