!Agilent Technologies,N5225A,MY51441201,A.09.90.19
!Agilent N5225A: A.09.90.19
!Date: Wednesday, April 25, 2018 14:33:46
!Correction: S11(Full 1 Port(1)) 
!S1P File: Measurement: S11:
# Hz S  dB   R 50
87500000 -2.3461692 91.822144
87602500 -2.3548069 91.930061
87705000 -2.4510126 91.531715
87807500 -2.3595607 91.03521
87910000 -2.3639905 91.585434
88012500 -2.4239955 90.672935
88115000 -2.4583681 91.098885
88217500 -2.4485309 90.469063
88320000 -2.4954824 89.907768
88422500 -2.4536171 90.015266
88525000 -2.5031166 89.276909
88627500 -2.4452176 89.04277
88730000 -2.4601665 88.752686
88832500 -2.5259604 88.714767
88935000 -2.562289 88.730339
89037500 -2.4410987 87.364586
89140000 -2.4790554 87.473732
89242500 -2.5292382 87.345375
89345000 -2.5207503 86.711029
89447500 -2.496417 86.922989
89550000 -2.5970981 86.127762
89652500 -2.643769 85.922119
89755000 -2.6066644 85.210167
89857500 -2.5654902 85.451019
89960000 -2.5377891 85.326073
90062500 -2.659265 84.830673
90165000 -2.6041062 83.824409
90267500 -2.6507809 84.333023
90370000 -2.6491649 84.143524
90472500 -2.6634467 83.232613
90575000 -2.6487315 83.206444
90677500 -2.7506547 82.800629
90780000 -2.6395504 82.623459
90882500 -2.6785629 82.024429
90985000 -2.6760471 82.083
91087500 -2.7044306 80.910248
91190000 -2.6873562 81.277489
91292500 -2.7008326 81.154884
91395000 -2.6946051 80.158325
91497500 -2.7095823 80.020645
91600000 -2.7494435 79.785866
91702500 -2.7456346 79.443932
91805000 -2.7993445 79.36058
91907500 -2.7246168 79.034737
92010000 -2.819145 78.573189
92112500 -2.7109222 77.998688
92215000 -2.852881 77.301407
92317500 -2.8103812 76.799004
92420000 -2.8247695 76.951279
92522500 -2.7991099 76.333748
92625000 -2.8437529 76.169243
92727500 -2.8210108 75.729179
92830000 -2.9137115 75.744225
92932500 -2.850493 74.904991
93035000 -2.8780706 74.888336
93137500 -2.8918829 74.426361
93240000 -2.8753276 74.012024
93342500 -2.96157 73.125893
93445000 -2.885499 73.119331
93547500 -2.8828287 72.758743
93650000 -2.9484859 72.491341
93752500 -2.9285052 72.090904
93855000 -3.0475037 71.93338
93957500 -2.9443398 71.084145
94060000 -2.9563589 71.157303
94162500 -2.9953079 70.708664
94265000 -2.9978538 69.694626
94367500 -3.0664921 69.271431
94470000 -3.0235109 69.45266
94572500 -3.1099248 69.037552
94675000 -3.0704 68.571136
94777500 -3.081567 68.25563
94880000 -3.0436654 67.818764
94982500 -3.1032751 66.983444
95085000 -3.0867617 66.668472
95187500 -3.0718493 66.63282
95290000 -3.1067491 66.068977
95392500 -3.1928082 65.59803
95495000 -3.1514859 65.204895
95597500 -3.161356 65.045837
95700000 -3.0784221 64.25486
95802500 -3.1791408 63.758369
95905000 -3.1383271 63.805115
96007500 -3.1812627 63.428116
96110000 -3.1944935 62.753498
96212500 -3.1518579 62.100948
96315000 -3.2385168 61.831772
96417500 -3.2842891 61.318905
96520000 -3.2163775 60.886177
96622500 -3.248543 60.476456
96725000 -3.2509584 60.042336
96827500 -3.2395484 59.959351
96930000 -3.2712147 59.392586
97032500 -3.2460725 58.645153
97135000 -3.3360989 58.568806
97237500 -3.3290491 57.627831
97340000 -3.397388 57.542065
97442500 -3.3082871 56.894279
97545000 -3.2931237 56.677982
97647500 -3.3148551 56.306431
97750000 -3.3698299 56.226158
97852500 -3.3821084 55.905186
97955000 -3.388824 55.256866
98057500 -3.4811611 54.404526
98160000 -3.3576682 53.933517
98262500 -3.4208443 53.471931
98365000 -3.4384842 53.194839
98467500 -3.4596417 52.478825
98570000 -3.4496307 51.86433
98672500 -3.4598479 51.679615
98775000 -3.5281377 51.148663
98877500 -3.4859285 50.914116
98980000 -3.4592376 50.285103
99082500 -3.4832397 49.745861
99185000 -3.4375648 49.523575
99287500 -3.4763143 49.001492
99390000 -3.4963701 48.18763
99492500 -3.5408134 48.130161
99595000 -3.560905 47.325813
99697500 -3.5699337 46.574902
99800000 -3.5481148 46.633099
99902500 -3.5068023 46.033218
100005000 -3.536948 45.391724
100107500 -3.5698204 45.373058
100210000 -3.5757847 44.71352
100312500 -3.6241956 44.129002
100415000 -3.6339364 43.417763
100517500 -3.6452348 42.902634
100620000 -3.6264782 42.911293
100722500 -3.6012468 42.430447
100825000 -3.6649537 41.736061
100927500 -3.6290326 41.195374
101030000 -3.6288989 40.478783
101132500 -3.6601906 40.49231
101235000 -3.6773589 39.230431
101337500 -3.6386375 39.236961
101440000 -3.7015469 38.508743
101542500 -3.6343684 38.075249
101645000 -3.6403699 37.75769
101747500 -3.7163308 37.195843
101850000 -3.6530702 36.304886
101952500 -3.7291234 36.150265
102055000 -3.6621718 35.717735
102157500 -3.6605968 34.731987
102260000 -3.7417173 34.693302
102362500 -3.695308 33.89217
102465000 -3.7265167 33.507534
102567500 -3.7725036 32.977268
102670000 -3.7383265 32.551567
102772500 -3.7238383 31.955965
102875000 -3.7949827 31.239288
102977500 -3.7722895 30.868296
103080000 -3.7312927 30.318954
103182500 -3.7910063 29.657057
103285000 -3.7281938 29.40419
103387500 -3.7855518 28.608469
103490000 -3.7731175 28.481485
103592500 -3.7753916 27.4039
103695000 -3.8150892 27.090454
103797500 -3.8391674 26.595228
103900000 -3.8312132 25.678953
104002500 -3.8422992 25.853529
104105000 -3.8186901 24.90696
104207500 -3.7722182 24.360031
104310000 -3.8581269 23.728937
104412500 -3.8116179 23.538301
104515000 -3.835726 22.573206
104617500 -3.816251 22.459263
104720000 -3.8330102 21.523237
104822500 -3.814997 21.26265
104925000 -3.8064756 20.736633
105027500 -3.8961301 20.159765
105130000 -3.9012918 19.493475
105232500 -3.8164599 18.542566
105335000 -3.8435969 18.230169
105437500 -3.8361933 17.794905
105540000 -3.8750496 17.307476
105642500 -3.8344798 16.876245
105745000 -3.8115916 16.120737
105847500 -3.9280386 15.964852
105950000 -3.890892 14.937693
106052500 -3.8105898 14.497324
106155000 -3.8078582 13.928823
106257500 -3.8561318 13.619408
106360000 -3.8495944 12.748696
106462500 -3.9127479 12.22036
106565000 -3.8641803 11.646986
106667500 -3.8748498 11.199241
106770000 -3.8526857 10.859678
106872500 -3.8264511 10.225974
106975000 -3.8491089 9.7595148
107077500 -3.7869711 9.2270279
107180000 -3.8326645 8.408637
107282500 -3.8186996 7.9315958
107385000 -3.7832794 7.1827421
107487500 -3.903461 6.7840199
107590000 -3.8887963 6.3811622
107692500 -3.818851 5.9696898
107795000 -3.8166316 5.0634828
107897500 -3.8083777 4.4722075
108000000 -3.8298159 3.9299214
