!Agilent Technologies,N5225A,MY51441201,A.09.90.19
!Agilent N5225A: A.09.90.19
!Date: Wednesday, April 25, 2018 14:34:35
!Correction: S11(Full 1 Port(1)) 
!S1P File: Measurement: S11:
# Hz S  dB   R 50
87500000 -2.3305299 92.052109
87602500 -2.3106041 91.667717
87705000 -2.4406049 91.274345
87807500 -2.350714 91.27449
87910000 -2.383878 91.34063
88012500 -2.3785095 90.811417
88115000 -2.4200013 91.079109
88217500 -2.3927667 90.507019
88320000 -2.3997321 90.134972
88422500 -2.3157055 89.811111
88525000 -2.5096936 89.428955
88627500 -2.4351754 89.094719
88730000 -2.4272423 88.789307
88832500 -2.4529574 88.480675
88935000 -2.5411229 88.282967
89037500 -2.4698207 87.304878
89140000 -2.4748914 87.238304
89242500 -2.5130668 87.484337
89345000 -2.506532 86.700539
89447500 -2.5068667 86.84642
89550000 -2.5811245 86.468613
89652500 -2.6195271 86.024117
89755000 -2.5583379 85.313454
89857500 -2.5374243 85.425629
89960000 -2.4804666 85.359131
90062500 -2.64481 84.755081
90165000 -2.5914094 83.836136
90267500 -2.6220355 84.352638
90370000 -2.6535668 83.777931
90472500 -2.6275079 83.774246
90575000 -2.5746591 83.205566
90677500 -2.6776385 82.973656
90780000 -2.6231158 82.335625
90882500 -2.6495385 81.774506
90985000 -2.5980117 81.843712
91087500 -2.6552026 81.433327
91190000 -2.6443169 80.975845
91292500 -2.6401548 81.024216
91395000 -2.6273568 80.219215
91497500 -2.6369402 79.795959
91600000 -2.7048862 79.521622
91702500 -2.6695778 79.500359
91805000 -2.7238386 79.204903
91907500 -2.7390909 78.780724
92010000 -2.7722402 78.205276
92112500 -2.7174745 77.848564
92215000 -2.7831936 77.494019
92317500 -2.7945788 77.073097
92420000 -2.7965748 77.169876
92522500 -2.7528594 76.235458
92625000 -2.7851548 76.179649
92727500 -2.8346229 75.981575
92830000 -2.8782728 75.842422
92932500 -2.7994788 74.72644
93035000 -2.8559535 74.819931
93137500 -2.875154 74.679489
93240000 -2.8567028 74.018707
93342500 -2.8780928 73.23465
93445000 -2.8478003 73.194702
93547500 -2.8992994 72.82589
93650000 -2.9054322 72.304451
93752500 -2.9676299 71.74807
93855000 -2.9971364 71.777405
93957500 -2.8404241 70.87677
94060000 -2.9707558 70.87748
94162500 -2.8841407 70.597961
94265000 -2.937108 70.110352
94367500 -2.954915 69.203773
94470000 -2.9959533 69.537735
94572500 -2.9806139 68.812599
94675000 -2.9739306 68.411446
94777500 -3.0821059 67.765678
94880000 -2.9979887 67.442169
94982500 -3.1245177 67.101265
95085000 -3.0555093 66.764626
95187500 -3.0209758 66.468567
95290000 -3.0586393 65.960518
95392500 -3.1113591 65.497398
95495000 -3.1269753 65.308174
95597500 -3.1071403 64.994003
95700000 -3.0459647 64.413704
95802500 -3.0816641 63.805962
95905000 -3.1307058 63.741589
96007500 -3.1421044 62.916321
96110000 -3.1235762 62.829147
96212500 -3.1393526 62.418491
96315000 -3.2320817 61.832001
96417500 -3.233743 61.248089
96520000 -3.1539521 61.019642
96622500 -3.1884012 60.270649
96725000 -3.1880796 60.293175
96827500 -3.2358117 59.84206
96930000 -3.210568 59.376209
97032500 -3.1645145 58.862591
97135000 -3.2528355 58.397476
97237500 -3.2846453 57.7962
97340000 -3.2806304 57.584709
97442500 -3.3109939 57.004036
97545000 -3.325877 56.485092
97647500 -3.2860477 56.460358
97750000 -3.2851815 56.223286
97852500 -3.2952993 55.724808
97955000 -3.3584898 55.241482
98057500 -3.378916 54.220654
98160000 -3.3757703 53.616772
98262500 -3.4006634 53.426319
98365000 -3.4190123 53.18951
98467500 -3.380837 52.48127
98570000 -3.3714638 51.973274
98672500 -3.3536861 51.79705
98775000 -3.3989012 51.154949
98877500 -3.4812663 50.710262
98980000 -3.4089699 50.143253
99082500 -3.4249306 49.736382
99185000 -3.4405999 49.538795
99287500 -3.4143257 48.626278
99390000 -3.484122 48.573326
99492500 -3.4845066 48.029507
99595000 -3.4819505 47.713585
99697500 -3.4697177 46.688591
99800000 -3.5033624 46.525749
99902500 -3.4547932 45.729042
100005000 -3.5366709 45.63134
100107500 -3.5504782 45.296848
100210000 -3.5399404 44.623489
100312500 -3.5529003 44.184307
100415000 -3.564728 43.257225
100517500 -3.5715029 42.90379
100620000 -3.5810986 42.854954
100722500 -3.5279949 42.130936
100825000 -3.5817637 41.730587
100927500 -3.583662 41.079166
101030000 -3.6112621 40.441334
101132500 -3.6101696 40.140049
101235000 -3.6274269 39.512512
101337500 -3.6024299 39.293056
101440000 -3.654161 38.595589
101542500 -3.6562238 38.460129
101645000 -3.663218 37.686241
101747500 -3.6297522 37.195656
101850000 -3.6112645 36.516888
101952500 -3.6882546 36.158333
102055000 -3.6436205 35.49839
102157500 -3.6162455 34.885437
102260000 -3.6841249 34.491341
102362500 -3.6260521 34.007023
102465000 -3.6928022 33.354973
102567500 -3.654896 32.873257
102670000 -3.6998277 32.107414
102772500 -3.7125874 32.075123
102875000 -3.7441201 31.183071
102977500 -3.65873 30.855953
103080000 -3.7512789 30.129414
103182500 -3.7283058 29.799351
103285000 -3.7253997 29.153709
103387500 -3.7014723 28.811907
103490000 -3.7179852 28.571678
103592500 -3.7306206 27.640347
103695000 -3.7268705 27.227177
103797500 -3.7665896 26.580936
103900000 -3.777652 26.031601
104002500 -3.7317235 25.448175
104105000 -3.7650518 24.932722
104207500 -3.7275205 24.351107
104310000 -3.8313885 23.906084
104412500 -3.7873943 23.58256
104515000 -3.7655647 22.734734
104617500 -3.7438614 22.504141
104720000 -3.7702434 21.631861
104822500 -3.7791529 21.230114
104925000 -3.7577386 20.680197
105027500 -3.8613822 19.921055
105130000 -3.8629889 19.425522
105232500 -3.7834952 18.772051
105335000 -3.774632 18.352377
105437500 -3.8065 17.752968
105540000 -3.7952321 17.347462
105642500 -3.8015223 16.864563
105745000 -3.7732379 15.962888
105847500 -3.8360219 15.841684
105950000 -3.8375807 15.04302
106052500 -3.7939796 14.519775
106155000 -3.8344572 14.021993
106257500 -3.8085809 13.599998
106360000 -3.8070192 12.779641
106462500 -3.856966 12.384377
106565000 -3.7939227 11.664144
106667500 -3.8568799 11.507118
106770000 -3.7493942 10.684164
106872500 -3.7805147 10.160499
106975000 -3.8046861 9.4928131
107077500 -3.7639334 8.8230371
107180000 -3.7989035 8.34688
107282500 -3.7407048 7.9373302
107385000 -3.7385032 7.4452305
107487500 -3.8318121 6.5689902
107590000 -3.812844 6.147366
107692500 -3.8134181 5.8882122
107795000 -3.7660029 5.1586514
107897500 -3.7907605 4.6521564
108000000 -3.8013351 3.8210354
