!Agilent Technologies,N5225A,MY51441201,A.09.90.19
!Agilent N5225A: A.09.90.19
!Date: Wednesday, April 25, 2018 14:35:22
!Correction: S11(Full 1 Port(1)) 
!S1P File: Measurement: S11:
# Hz S  dB   R 50
87500000 -2.3258033 91.800148
87602500 -2.3159637 92.023071
87705000 -2.3465183 91.427208
87807500 -2.3773265 91.468201
87910000 -2.3103058 91.212486
88012500 -2.3243306 90.569908
88115000 -2.3913622 91.260025
88217500 -2.3863373 90.149818
88320000 -2.4259133 90.623619
88422500 -2.2970178 89.85112
88525000 -2.4204121 89.461105
88627500 -2.3818848 89.474533
88730000 -2.4331021 88.781105
88832500 -2.4405911 88.483078
88935000 -2.4928665 87.832993
89037500 -2.4195659 87.308823
89140000 -2.3898692 87.390518
89242500 -2.511673 87.361404
89345000 -2.4764774 86.654846
89447500 -2.5086911 86.697014
89550000 -2.533917 86.351952
89652500 -2.5710094 86.035576
89755000 -2.5625393 84.979767
89857500 -2.5016298 85.344452
89960000 -2.4952247 85.316246
90062500 -2.6259289 84.551575
90165000 -2.5111177 84.22403
90267500 -2.6340826 84.389938
90370000 -2.5692847 83.880707
90472500 -2.6145053 83.195534
90575000 -2.5563984 83.428352
90677500 -2.6506801 82.980492
90780000 -2.6514201 82.454437
90882500 -2.6204431 81.846878
90985000 -2.5702336 82.09993
91087500 -2.6101577 81.116692
91190000 -2.6280589 81.529396
91292500 -2.6059599 81.076218
91395000 -2.6637752 80.276024
91497500 -2.6460395 79.731194
91600000 -2.6610041 79.652328
91702500 -2.6695487 79.050377
91805000 -2.7143686 79.281425
91907500 -2.6974299 78.895508
92010000 -2.7475343 78.474678
92112500 -2.6918206 78.251503
92215000 -2.8036423 77.416512
92317500 -2.7942898 77.223976
92420000 -2.8027205 76.753777
92522500 -2.7128506 76.365982
92625000 -2.7621171 76.52478
92727500 -2.8012574 75.713516
92830000 -2.8919132 75.648712
92932500 -2.7397075 74.752136
93035000 -2.8064024 74.885666
93137500 -2.7834277 74.231659
93240000 -2.8613689 73.614105
93342500 -2.865813 73.370865
93445000 -2.8061581 72.853104
93547500 -2.8378439 72.982613
93650000 -2.9062984 72.382904
93752500 -2.9093063 71.975952
93855000 -2.9050763 71.652763
93957500 -2.8158398 71.197678
94060000 -2.955828 70.801796
94162500 -2.9008365 70.533897
94265000 -2.9070792 69.73851
94367500 -2.9570544 69.188789
94470000 -2.9116554 69.056465
94572500 -2.9626541 68.982468
94675000 -2.9733655 68.359909
94777500 -3.0185344 68.073898
94880000 -2.9269602 67.347191
94982500 -3.0464277 67.183334
95085000 -3.0179825 66.983688
95187500 -3.0333767 66.596977
95290000 -3.0687499 66.043449
95392500 -3.096283 65.604004
95495000 -3.0817297 65.383957
95597500 -3.1046395 64.625053
95700000 -3.0139658 64.329376
95802500 -3.0540044 63.860889
95905000 -3.0843635 63.613541
96007500 -3.0858734 62.96386
96110000 -3.1200325 62.36581
96212500 -3.1137516 62.650265
96315000 -3.16803 61.562416
96417500 -3.2269492 61.43111
96520000 -3.1568301 61.058666
96622500 -3.1451697 60.306595
96725000 -3.1761539 60.36998
96827500 -3.1425982 60.074696
96930000 -3.2149048 59.236031
97032500 -3.2228382 58.872597
97135000 -3.254494 58.206608
97237500 -3.2569919 57.915512
97340000 -3.2611136 57.660931
97442500 -3.2048783 56.806881
97545000 -3.2451653 56.704247
97647500 -3.2787118 56.645443
97750000 -3.2533824 56.013851
97852500 -3.251627 55.701237
97955000 -3.3137329 54.776958
98057500 -3.3755143 54.095676
98160000 -3.3013582 53.7775
98262500 -3.3352745 53.658554
98365000 -3.3408568 53.177429
98467500 -3.373857 52.66407
98570000 -3.3591261 51.837433
98672500 -3.3391743 51.484699
98775000 -3.4100487 51.054008
98877500 -3.3902349 51.0653
98980000 -3.3354406 50.320774
99082500 -3.3658619 49.883057
99185000 -3.4419959 49.416759
99287500 -3.3664737 49.028191
99390000 -3.446173 48.613457
99492500 -3.441052 48.369637
99595000 -3.4552736 47.647728
99697500 -3.4132416 46.638206
99800000 -3.4464548 46.455601
99902500 -3.4587705 45.854122
100005000 -3.4684746 45.369255
100107500 -3.497889 45.404903
100210000 -3.4552007 44.541832
100312500 -3.5687048 44.074776
100415000 -3.5488081 43.635216
100517500 -3.5281072 43.042259
100620000 -3.5279894 42.831409
100722500 -3.4916167 42.332878
100825000 -3.5357952 41.64872
100927500 -3.5541697 40.897575
101030000 -3.5274866 40.239777
101132500 -3.5592442 40.207451
101235000 -3.5683832 39.351421
101337500 -3.5693147 39.314053
101440000 -3.6263855 38.652149
101542500 -3.6235054 38.088188
101645000 -3.6299677 37.667194
101747500 -3.6430781 36.648209
101850000 -3.5918286 36.652149
101952500 -3.6117611 36.264496
102055000 -3.5915794 35.611038
102157500 -3.5827904 35.109489
102260000 -3.658654 34.35556
102362500 -3.6567197 33.946568
102465000 -3.6716478 33.293766
102567500 -3.6322985 33.036304
102670000 -3.6008492 32.55365
102772500 -3.6707516 32.098328
102875000 -3.7259939 31.505289
102977500 -3.6659865 30.955503
103080000 -3.7313762 30.18705
103182500 -3.7020605 29.916679
103285000 -3.6541557 29.137529
103387500 -3.6677849 28.839529
103490000 -3.6946509 28.67182
103592500 -3.7164638 27.51251
103695000 -3.7120509 26.894749
103797500 -3.7377272 26.889467
103900000 -3.7495708 26.019732
104002500 -3.7085278 25.42605
104105000 -3.7372181 24.957129
104207500 -3.6757224 24.483885
104310000 -3.7672338 24.062618
104412500 -3.7609413 23.579121
104515000 -3.6997378 22.74021
104617500 -3.7787473 22.129253
104720000 -3.7444935 21.084139
104822500 -3.7222352 21.446564
104925000 -3.7558143 20.48365
105027500 -3.8135402 20.363091
105130000 -3.7703772 19.484274
105232500 -3.7189763 18.723177
105335000 -3.7519946 18.116369
105437500 -3.7677748 17.807211
105540000 -3.7176614 17.240332
105642500 -3.7106061 16.800497
105745000 -3.7696681 16.419752
105847500 -3.8287873 15.825336
105950000 -3.7641075 15.104855
106052500 -3.7275376 14.839971
106155000 -3.759515 13.946808
106257500 -3.7813263 13.760743
106360000 -3.7366445 12.945493
106462500 -3.7739949 12.291979
106565000 -3.7812173 11.834255
106667500 -3.7529032 11.287423
106770000 -3.7645919 10.832257
106872500 -3.7110274 10.133657
106975000 -3.7584405 9.5630474
107077500 -3.7337351 9.0341806
107180000 -3.7927561 8.4705143
107282500 -3.7039604 8.1077614
107385000 -3.744832 7.4595408
107487500 -3.782269 6.835362
107590000 -3.7864242 6.1924515
107692500 -3.7435794 5.8173065
107795000 -3.7290072 5.1544809
107897500 -3.7426815 4.5740113
108000000 -3.7498472 3.8905351
