!Agilent Technologies,N5225A,MY51441201,A.09.90.19
!Agilent N5225A: A.09.90.19
!Date: Wednesday, April 25, 2018 14:52:10
!Correction: S11(Full 1 Port(1)) 
!S1P File: Measurement: S11:
# Hz S  dB   R 50
87500000 -2.2826331 92.214096
87602500 -2.260359 91.715469
87705000 -2.3525481 91.416794
87807500 -2.2786229 91.571747
87910000 -2.3147166 91.349365
88012500 -2.3846419 90.575783
88115000 -2.3559484 90.7304
88217500 -2.3567889 90.546547
88320000 -2.3978982 90.236809
88422500 -2.2959707 89.936104
88525000 -2.3993907 89.497345
88627500 -2.3598328 89.228477
88730000 -2.4016926 88.579918
88832500 -2.435601 88.434464
88935000 -2.4831948 88.123451
89037500 -2.3480113 87.207024
89140000 -2.4183667 87.236717
89242500 -2.5079699 87.337067
89345000 -2.4869726 86.667694
89447500 -2.4387889 86.618317
89550000 -2.5547428 86.279541
89652500 -2.5402086 85.849754
89755000 -2.4904315 85.282532
89857500 -2.5272753 85.502724
89960000 -2.4756138 85.130531
90062500 -2.6146553 84.698784
90165000 -2.5060663 84.078438
90267500 -2.5635502 84.402618
90370000 -2.589849 83.487595
90472500 -2.5774429 83.391373
90575000 -2.5910163 83.258522
90677500 -2.6121168 82.807747
90780000 -2.5303557 82.107391
90882500 -2.5990448 81.626663
90985000 -2.5551305 81.895508
91087500 -2.5780337 81.313187
91190000 -2.6348479 80.935196
91292500 -2.5919421 81.155746
91395000 -2.5721266 80.132523
91497500 -2.6391795 79.721283
91600000 -2.6433561 79.725037
91702500 -2.6879482 79.312485
91805000 -2.6458383 78.952667
91907500 -2.6247211 78.86467
92010000 -2.751158 78.349121
92112500 -2.6908908 77.808578
92215000 -2.7233293 77.178246
92317500 -2.727052 76.512688
92420000 -2.744215 76.779892
92522500 -2.7184381 76.192657
92625000 -2.7753627 76.208084
92727500 -2.7694809 75.434708
92830000 -2.8444896 75.80603
92932500 -2.7875431 75.140724
93035000 -2.7193046 74.663422
93137500 -2.8204427 74.523643
93240000 -2.8012612 73.908127
93342500 -2.8203988 73.198418
93445000 -2.7706592 73.150284
93547500 -2.7928414 72.311638
93650000 -2.8002076 72.518204
93752500 -2.90382 71.99968
93855000 -2.943579 71.591103
93957500 -2.8506422 71.144981
94060000 -2.9399505 70.711769
94162500 -2.8976641 70.646942
94265000 -2.8884385 69.759865
94367500 -2.9396243 69.607666
94470000 -2.9373925 69.116783
94572500 -2.969959 68.900276
94675000 -2.9344556 68.184875
94777500 -3.0177276 68.124496
94880000 -2.9413149 67.329285
94982500 -3.0068166 67.305756
95085000 -3.0323577 66.666351
95187500 -2.940161 66.426033
95290000 -3.0153952 65.906815
95392500 -3.0797808 65.808609
95495000 -3.0338938 65.297348
95597500 -3.0941153 64.947258
95700000 -3.0016739 64.155037
95802500 -3.0671425 63.965298
95905000 -3.1140442 63.163651
96007500 -3.0763996 63.009602
96110000 -3.0630033 62.772144
96212500 -3.0895309 62.499748
96315000 -3.1340537 61.642002
96417500 -3.1653168 61.459846
96520000 -3.0670626 60.826477
96622500 -3.1355004 60.206848
96725000 -3.2053447 60.261482
96827500 -3.1311839 60.104458
96930000 -3.1549344 59.397224
97032500 -3.1679399 58.619957
97135000 -3.1494725 58.437923
97237500 -3.2513475 57.89064
97340000 -3.2858734 57.640854
97442500 -3.2103283 56.911903
97545000 -3.2313666 56.61198
97647500 -3.2415423 56.486504
97750000 -3.2414782 56.127888
97852500 -3.2179301 55.557121
97955000 -3.2803152 55.308968
98057500 -3.3740628 54.109386
98160000 -3.2532911 53.840569
98262500 -3.2553344 53.739681
98365000 -3.3432479 53.053719
98467500 -3.322715 52.803558
98570000 -3.3421183 52.005005
98672500 -3.3313806 51.492123
98775000 -3.3611665 50.779995
98877500 -3.3992984 51.061523
98980000 -3.3014042 50.163513
99082500 -3.3937445 49.795418
99185000 -3.3732905 49.648857
99287500 -3.3768432 48.935406
99390000 -3.3917429 48.532558
99492500 -3.4027479 48.247654
99595000 -3.4817135 47.364368
99697500 -3.4257579 46.347713
99800000 -3.4464931 46.820889
99902500 -3.449666 45.997906
100005000 -3.4403307 45.569965
100107500 -3.4844804 45.406052
100210000 -3.4592612 44.8881
100312500 -3.4860144 44.049065
100415000 -3.5313344 43.566437
100517500 -3.4910357 42.879517
100620000 -3.4564505 42.470341
100722500 -3.491626 42.202908
100825000 -3.529248 41.505199
100927500 -3.5151739 41.210606
101030000 -3.500356 40.76112
101132500 -3.5398946 40.128319
101235000 -3.5131392 39.351131
101337500 -3.5124545 38.999886
101440000 -3.5508554 38.782566
101542500 -3.5586655 38.290237
101645000 -3.559545 37.719074
101747500 -3.6065125 37.105316
101850000 -3.548315 36.460621
101952500 -3.6186683 36.406845
102055000 -3.5736487 35.429966
102157500 -3.5455868 34.892906
102260000 -3.5793302 34.540985
102362500 -3.612185 33.927299
102465000 -3.614049 33.308918
102567500 -3.6100852 33.037544
102670000 -3.5955422 32.306694
102772500 -3.6050885 32.287338
102875000 -3.6766887 31.292341
102977500 -3.6132767 30.700132
103080000 -3.6908996 30.27739
103182500 -3.6483235 29.793104
103285000 -3.6729209 29.412157
103387500 -3.6576638 28.758873
103490000 -3.6831164 28.582985
103592500 -3.6534011 27.730564
103695000 -3.7077792 26.826822
103797500 -3.6902907 26.32098
103900000 -3.7540748 25.902489
104002500 -3.7165544 25.715403
104105000 -3.7035894 25.025633
104207500 -3.6561246 24.629171
104310000 -3.7491524 23.894842
104412500 -3.68771 23.520369
104515000 -3.6640954 22.642832
104617500 -3.6806986 22.516235
104720000 -3.6764133 21.28895
104822500 -3.6901183 20.995783
104925000 -3.6629844 20.582956
105027500 -3.7739511 20.111238
105130000 -3.7517755 19.275063
105232500 -3.682116 18.972958
105335000 -3.7352607 18.077183
105437500 -3.7058928 17.670473
105540000 -3.6931617 17.379591
105642500 -3.6849446 16.838009
105745000 -3.6827977 16.019014
105847500 -3.7432086 15.939374
105950000 -3.7315738 14.884243
106052500 -3.6644688 14.65427
106155000 -3.7436285 13.913732
106257500 -3.7066026 13.798294
106360000 -3.735095 12.907363
106462500 -3.7042775 12.293056
106565000 -3.6950345 11.649947
106667500 -3.7012157 11.086567
106770000 -3.7194941 10.845328
106872500 -3.7122033 10.378128
106975000 -3.7185466 9.537921
107077500 -3.7088647 9.0327263
107180000 -3.7265055 8.2290525
107282500 -3.6886964 7.8545732
107385000 -3.6912885 7.5422277
107487500 -3.7127275 7.0483904
107590000 -3.7443035 6.4614954
107692500 -3.7228458 5.9977469
107795000 -3.7080932 5.2393885
107897500 -3.7072279 4.5220046
108000000 -3.7354653 3.5592022
