!Agilent Technologies,N5225A,MY51441201,A.09.90.19
!Agilent N5225A: A.09.90.19
!Date: Wednesday, April 25, 2018 14:52:58
!Correction: S11(Full 1 Port(1)) 
!S1P File: Measurement: S11:
# Hz S  dB   R 50
87500000 -2.2837088 91.954079
87602500 -2.2127192 91.532074
87705000 -2.3619053 91.70266
87807500 -2.2728972 91.727997
87910000 -2.2974508 91.467781
88012500 -2.2991159 90.403328
88115000 -2.3503177 91.013512
88217500 -2.2565949 90.503296
88320000 -2.3284464 90.010315
88422500 -2.2773061 89.908714
88525000 -2.4054902 89.281891
88627500 -2.2859142 89.314369
88730000 -2.3594155 88.715851
88832500 -2.4023576 88.185349
88935000 -2.469867 87.91851
89037500 -2.3748012 87.516487
89140000 -2.3564599 87.237297
89242500 -2.4811454 87.164024
89345000 -2.4301472 86.4692
89447500 -2.3593864 86.697899
89550000 -2.4826887 86.412514
89652500 -2.4750109 85.982292
89755000 -2.4112399 85.386093
89857500 -2.4163811 85.260498
89960000 -2.4315813 85.297516
90062500 -2.5307238 84.544518
90165000 -2.4487429 84.217117
90267500 -2.5160034 84.446373
90370000 -2.542083 83.81089
90472500 -2.5335178 83.104477
90575000 -2.4446561 83.039177
90677500 -2.6071393 82.850624
90780000 -2.5402291 82.270508
90882500 -2.549273 81.457474
90985000 -2.4722588 82.171646
91087500 -2.5792131 81.094048
91190000 -2.6066065 81.281586
91292500 -2.501349 81.110626
91395000 -2.5790493 80.261971
91497500 -2.6266885 79.926163
91600000 -2.5982862 79.634521
91702500 -2.6119175 79.470116
91805000 -2.6111057 79.006264
91907500 -2.6213357 78.615135
92010000 -2.6879892 78.42968
92112500 -2.6001861 77.768791
92215000 -2.71872 77.234131
92317500 -2.6864777 77.115021
92420000 -2.6985748 76.746063
92522500 -2.6831131 76.387299
92625000 -2.7122064 76.068344
92727500 -2.6761334 75.696121
92830000 -2.8070309 75.774963
92932500 -2.7002251 74.878799
93035000 -2.7610412 74.649193
93137500 -2.7824879 74.28302
93240000 -2.7042575 73.779602
93342500 -2.7412679 73.247665
93445000 -2.7472422 73.041573
93547500 -2.8204918 72.290771
93650000 -2.8216996 72.333855
93752500 -2.8061206 72.161247
93855000 -2.8971291 71.652367
93957500 -2.7732308 71.254257
94060000 -2.8668108 70.799789
94162500 -2.7780132 70.387871
94265000 -2.8226457 69.869354
94367500 -2.9223857 69.381653
94470000 -2.8903584 69.407845
94572500 -2.9339905 68.622688
94675000 -2.9187529 68.386497
94777500 -2.9638 68.194908
94880000 -2.9232218 67.465111
94982500 -2.9480717 67.351341
95085000 -2.9276481 66.303093
95187500 -2.9301367 66.321014
95290000 -2.999871 65.919724
95392500 -2.9859269 65.946312
95495000 -2.9853826 65.393021
95597500 -3.052294 64.758934
95700000 -2.936625 64.125389
95802500 -3.0148222 63.8176
95905000 -3.0096121 63.484402
96007500 -3.0316961 62.974216
96110000 -3.094826 62.925743
96212500 -3.0495024 62.303291
96315000 -3.1349638 61.80637
96417500 -3.1328859 61.234272
96520000 -3.0560341 60.795994
96622500 -3.0446849 60.338146
96725000 -3.0689311 59.862259
96827500 -3.1006458 59.809952
96930000 -3.1184342 59.274479
97032500 -3.095191 58.677814
97135000 -3.1654859 58.578579
97237500 -3.1941779 58.128326
97340000 -3.201189 57.773476
97442500 -3.1757894 57.091042
97545000 -3.1792095 56.671104
97647500 -3.2058587 56.018761
97750000 -3.2014852 56.072784
97852500 -3.2182231 55.669342
97955000 -3.1801693 54.966202
98057500 -3.3052535 54.36861
98160000 -3.2185175 53.440353
98262500 -3.217473 53.775181
98365000 -3.2854316 53.186481
98467500 -3.2273564 52.760849
98570000 -3.263684 51.986115
98672500 -3.2889132 51.394882
98775000 -3.2934165 50.962723
98877500 -3.3281136 51.05648
98980000 -3.2909 50.372303
99082500 -3.3057568 49.834137
99185000 -3.3516276 49.493958
99287500 -3.3275268 48.912762
99390000 -3.3350642 48.400425
99492500 -3.3714604 48.044266
99595000 -3.3973427 47.651268
99697500 -3.3717594 46.585289
99800000 -3.3085115 46.682655
99902500 -3.3581319 46.065102
100005000 -3.4073634 45.218697
100107500 -3.4129598 45.182678
100210000 -3.4076314 44.439568
100312500 -3.4037685 44.29623
100415000 -3.4620168 43.246223
100517500 -3.4145072 42.978024
100620000 -3.4186602 42.584156
100722500 -3.4616263 42.108891
100825000 -3.4890566 41.757511
100927500 -3.5125988 41.269314
101030000 -3.4200273 40.567451
101132500 -3.4908638 39.972698
101235000 -3.4437387 39.862831
101337500 -3.4900529 39.397667
101440000 -3.5092256 38.737915
101542500 -3.5107205 38.374886
101645000 -3.4719028 37.678612
101747500 -3.5211449 36.81852
101850000 -3.5074401 36.482677
101952500 -3.5287414 36.350349
102055000 -3.5047536 35.627586
102157500 -3.4482021 34.943584
102260000 -3.5269949 34.462616
102362500 -3.5279217 33.807194
102465000 -3.5728383 33.245293
102567500 -3.530067 32.916767
102670000 -3.5364764 32.452263
102772500 -3.5731316 32.223499
102875000 -3.6085937 31.623428
102977500 -3.5955043 30.793224
103080000 -3.6058431 30.550674
103182500 -3.6178353 29.794992
103285000 -3.5702593 29.451872
103387500 -3.5248594 28.692842
103490000 -3.5974996 28.487099
103592500 -3.6121867 27.858576
103695000 -3.637202 27.119011
103797500 -3.6197164 26.631807
103900000 -3.6696758 25.981733
104002500 -3.6168473 25.430429
104105000 -3.6311121 24.999615
104207500 -3.612247 24.49955
104310000 -3.6855855 23.943888
104412500 -3.6686757 23.476936
104515000 -3.6214659 22.612034
104617500 -3.6441891 22.443722
104720000 -3.6522434 21.585392
104822500 -3.6429293 21.031282
104925000 -3.6536267 20.717628
105027500 -3.6685309 20.044703
105130000 -3.6890159 19.449512
105232500 -3.6530609 19.031719
105335000 -3.6097424 18.298912
105437500 -3.6482382 18.061064
105540000 -3.6624346 17.232994
105642500 -3.6271262 16.883528
105745000 -3.6424627 16.131018
105847500 -3.7178185 15.954111
105950000 -3.6856711 14.925301
106052500 -3.6205065 14.544193
106155000 -3.7217882 14.31213
106257500 -3.6368001 13.580479
106360000 -3.6501491 12.738026
106462500 -3.6779327 12.461709
106565000 -3.6714134 11.854077
106667500 -3.677021 11.345081
106770000 -3.6640131 10.953402
106872500 -3.6825194 10.314743
106975000 -3.6750588 9.7108049
107077500 -3.6536629 9.092289
107180000 -3.6521857 8.5531902
107282500 -3.6224599 7.945385
107385000 -3.6420598 7.5553985
107487500 -3.6925933 6.6891727
107590000 -3.6666462 6.2060332
107692500 -3.6691599 5.8401656
107795000 -3.6397414 5.2534418
107897500 -3.6760321 4.8415322
108000000 -3.6627133 4.1470485
