!Agilent Technologies,N5225A,MY51441201,A.09.90.19
!Agilent N5225A: A.09.90.19
!Date: Wednesday, April 25, 2018 14:53:39
!Correction: S11(Full 1 Port(1)) 
!S1P File: Measurement: S11:
# Hz S  dB   R 50
87500000 -2.2505653 92.104881
87602500 -2.2163682 91.711792
87705000 -2.3261902 91.85508
87807500 -2.2593145 91.577934
87910000 -2.267195 91.061798
88012500 -2.3200102 90.616577
88115000 -2.3142653 90.740013
88217500 -2.3024056 90.483597
88320000 -2.3099344 90.246681
88422500 -2.2637212 89.653687
88525000 -2.303709 89.32267
88627500 -2.2844827 89.203407
88730000 -2.3682849 88.527237
88832500 -2.3728426 88.196632
88935000 -2.3727775 87.959587
89037500 -2.3080158 87.194168
89140000 -2.3101137 87.341988
89242500 -2.4294174 87.234528
89345000 -2.402431 86.457047
89447500 -2.3964877 86.953049
89550000 -2.5263836 86.044617
89652500 -2.4658101 85.932388
89755000 -2.490123 84.993629
89857500 -2.434243 85.466103
89960000 -2.3865263 85.397812
90062500 -2.5466471 84.680374
90165000 -2.4327435 83.814674
90267500 -2.457222 84.430367
90370000 -2.5062871 83.75515
90472500 -2.54041 83.208633
90575000 -2.4741542 82.932892
90677500 -2.541214 82.915657
90780000 -2.5099616 82.187271
90882500 -2.5359137 81.786537
90985000 -2.4871032 82.129265
91087500 -2.5786924 81.26329
91190000 -2.5130463 80.912628
91292500 -2.5430486 81.125397
91395000 -2.5156574 80.039276
91497500 -2.5459378 79.463463
91600000 -2.5633194 79.756645
91702500 -2.5565813 79.309006
91805000 -2.5945075 79.000076
91907500 -2.5517211 78.859245
92010000 -2.656136 78.133919
92112500 -2.5930331 78.11084
92215000 -2.6788065 77.227486
92317500 -2.6744499 77.133438
92420000 -2.652818 76.884232
92522500 -2.6699908 75.981781
92625000 -2.6615036 76.414597
92727500 -2.6791005 75.562172
92830000 -2.7072434 75.424858
92932500 -2.6686707 74.782166
93035000 -2.6440604 74.275719
93137500 -2.7468872 74.444351
93240000 -2.6913342 73.772018
93342500 -2.7619538 73.094078
93445000 -2.7316391 73.15493
93547500 -2.770721 72.281166
93650000 -2.7792957 72.274162
93752500 -2.8501072 71.842491
93855000 -2.8594298 71.752167
93957500 -2.7381656 70.937576
94060000 -2.8375025 70.785278
94162500 -2.7384706 70.191803
94265000 -2.8579354 69.441788
94367500 -2.8956292 69.408226
94470000 -2.8257303 69.16037
94572500 -2.9389133 68.819504
94675000 -2.8760397 68.3936
94777500 -2.8917587 67.961136
94880000 -2.8617821 67.669212
94982500 -2.9360001 66.923721
95085000 -2.9382906 66.673149
95187500 -2.8837092 66.391922
95290000 -2.9250412 65.929779
95392500 -2.9218247 65.481102
95495000 -3.0055702 65.43235
95597500 -3.0188644 64.804436
95700000 -2.8820679 64.427391
95802500 -2.9980443 63.823475
95905000 -2.9343374 63.4412
96007500 -2.9948354 63.082596
96110000 -2.9819598 62.367447
96212500 -2.9685514 62.103973
96315000 -3.0866261 61.814899
96417500 -3.0771015 61.369061
96520000 -2.9934785 60.909054
96622500 -3.0530987 60.467762
96725000 -3.0930567 59.824707
96827500 -3.070976 59.897789
96930000 -3.0779586 59.255329
97032500 -3.0219424 58.663567
97135000 -3.1055372 58.205173
97237500 -3.1482236 57.989735
97340000 -3.1436844 57.735622
97442500 -3.1103587 56.860825
97545000 -3.1800563 56.700588
97647500 -3.1341131 55.933746
97750000 -3.1334901 55.825989
97852500 -3.1216075 55.686306
97955000 -3.1891153 54.897499
98057500 -3.2564688 54.144852
98160000 -3.1896818 53.911167
98262500 -3.2156441 53.544693
98365000 -3.1965151 53.091663
98467500 -3.2125568 52.698986
98570000 -3.2154498 52.22604
98672500 -3.2050695 51.733406
98775000 -3.2289388 51.217556
98877500 -3.2754285 50.866665
98980000 -3.2364807 50.420887
99082500 -3.2639389 49.843647
99185000 -3.2417312 49.510483
99287500 -3.2783558 49.045879
99390000 -3.2808049 48.526844
99492500 -3.3332171 48.032742
99595000 -3.3127837 47.46946
99697500 -3.3252664 46.587856
99800000 -3.2892034 46.679653
99902500 -3.2857406 45.767414
100005000 -3.3582234 45.413666
100107500 -3.3583457 45.34351
100210000 -3.3331683 44.443932
100312500 -3.3865497 43.81324
100415000 -3.4688976 43.410759
100517500 -3.3885694 42.659897
100620000 -3.4359133 42.839611
100722500 -3.4232924 42.516079
100825000 -3.43806 41.305096
100927500 -3.3707895 40.960213
101030000 -3.393012 40.543373
101132500 -3.4383526 40.183319
101235000 -3.4323187 39.310192
101337500 -3.4561672 38.946838
101440000 -3.4917672 38.816296
101542500 -3.4636478 38.053055
101645000 -3.4767451 37.571083
101747500 -3.4964116 36.970631
101850000 -3.4787297 36.516056
101952500 -3.5031388 36.101692
102055000 -3.4429102 35.405544
102157500 -3.4259703 35.108212
102260000 -3.4795372 34.63924
102362500 -3.4885967 34.148521
102465000 -3.5309193 33.25967
102567500 -3.4932652 33.246143
102670000 -3.4991708 32.479523
102772500 -3.5258141 32.0159
102875000 -3.5558407 31.487514
102977500 -3.5271635 30.888899
103080000 -3.5509751 30.18845
103182500 -3.5440292 29.687059
103285000 -3.5009871 29.259605
103387500 -3.5094776 28.795269
103490000 -3.58092 28.514959
103592500 -3.5193074 27.343472
103695000 -3.5604079 27.152605
103797500 -3.6131594 26.759573
103900000 -3.5849204 25.900379
104002500 -3.6103179 25.416401
104105000 -3.5962765 25.202868
104207500 -3.5941653 24.391886
104310000 -3.6475124 24.233812
104412500 -3.6418066 23.415133
104515000 -3.6054587 22.882469
104617500 -3.6061637 22.524714
104720000 -3.546617 21.624992
104822500 -3.6170428 21.179735
104925000 -3.574826 20.713242
105027500 -3.6512749 20.333267
105130000 -3.6841776 19.784348
105232500 -3.6113243 18.878227
105335000 -3.6114166 18.44318
105437500 -3.6669574 17.920858
105540000 -3.5988336 17.23695
105642500 -3.6170242 17.017397
105745000 -3.5810316 16.41391
105847500 -3.6745746 15.926891
105950000 -3.6380212 15.007393
106052500 -3.5871332 14.80678
106155000 -3.6465995 14.074734
106257500 -3.6290348 13.858958
106360000 -3.632802 13.044107
106462500 -3.6331267 12.344568
106565000 -3.6211207 11.927442
106667500 -3.61795 11.534922
106770000 -3.6283865 11.077821
106872500 -3.5902898 10.299357
106975000 -3.6413662 9.6949701
107077500 -3.6187885 8.969636
107180000 -3.623085 8.4915857
107282500 -3.5921826 8.0561275
107385000 -3.597893 7.7738962
107487500 -3.6466303 6.8972483
107590000 -3.6296124 6.3463502
107692500 -3.6110675 6.0418682
107795000 -3.5804501 5.345036
107897500 -3.6262584 4.5837092
108000000 -3.5924091 3.9967432
