!Agilent Technologies,N5225A,MY51441201,A.09.90.19
!Agilent N5225A: A.09.90.19
!Date: Wednesday, April 25, 2018 14:38:26
!Correction: S11(Full 1 Port(1)) 
!S1P File: Measurement: S11:
# Hz S  dB   R 50
87500000 -0.34144753 -130.96074
87602500 -0.37397608 -130.90602
87705000 -0.2888076 -130.95763
87807500 -0.37323171 -131.36644
87910000 -0.32546648 -130.95648
88012500 -0.32588121 -130.75018
88115000 -0.27705356 -131.35944
88217500 -0.36854476 -131.33028
88320000 -0.246693 -131.55676
88422500 -0.36604959 -131.69508
88525000 -0.28942806 -132.17014
88627500 -0.3050853 -131.81905
88730000 -0.30147725 -131.79095
88832500 -0.30468422 -131.74014
88935000 -0.23916979 -131.38536
89037500 -0.27357033 -131.5211
89140000 -0.28828126 -131.88405
89242500 -0.30421537 -132.00154
89345000 -0.29964507 -132.30713
89447500 -0.30665728 -132.00742
89550000 -0.20536488 -132.27701
89652500 -0.23886473 -132.17599
89755000 -0.24565345 -132.04758
89857500 -0.32914063 -132.6198
89960000 -0.29687098 -132.53635
90062500 -0.2594668 -132.54688
90165000 -0.27072868 -132.63979
90267500 -0.25761646 -132.93513
90370000 -0.25336629 -132.87863
90472500 -0.25525972 -133.26837
90575000 -0.30752534 -132.68025
90677500 -0.21857207 -133.01973
90780000 -0.22443949 -133.28362
90882500 -0.28946671 -132.68353
90985000 -0.24938869 -133.2018
91087500 -0.23998013 -133.05199
91190000 -0.19106029 -133.49779
91292500 -0.26238209 -133.52112
91395000 -0.28009525 -133.89493
91497500 -0.29210612 -133.53601
91600000 -0.27485955 -133.69754
91702500 -0.23738581 -134.07109
91805000 -0.25445488 -133.9409
91907500 -0.25039193 -133.72707
92010000 -0.27492148 -133.97209
92112500 -0.24845344 -134.13754
92215000 -0.21648073 -133.95799
92317500 -0.22588468 -134.16821
92420000 -0.2415988 -134.4283
92522500 -0.22277044 -134.26167
92625000 -0.24646223 -134.0343
92727500 -0.19949439 -134.41527
92830000 -0.20719588 -134.39682
92932500 -0.25575051 -134.50188
93035000 -0.24798812 -134.65605
93137500 -0.23870179 -134.63969
93240000 -0.29931131 -134.765
93342500 -0.21729062 -134.52049
93445000 -0.23605175 -134.58415
93547500 -0.28446224 -134.89525
93650000 -0.29167551 -134.65074
93752500 -0.19465879 -134.6897
93855000 -0.23262408 -134.99718
93957500 -0.24512331 -135.45866
94060000 -0.19038321 -135.17996
94162500 -0.16786204 -135.11536
94265000 -0.25052842 -135.21918
94367500 -0.19594251 -135.243
94470000 -0.2392627 -135.35849
94572500 -0.22880922 -135.50189
94675000 -0.28426588 -135.09497
94777500 -0.24036892 -135.79996
94880000 -0.25117072 -135.22394
94982500 -0.20579365 -135.97403
95085000 -0.17480044 -135.7932
95187500 -0.20334652 -135.88202
95290000 -0.20144539 -135.77829
95392500 -0.17099606 -135.89349
95495000 -0.21771346 -135.86501
95597500 -0.17583033 -135.71516
95700000 -0.27174997 -136.11154
95802500 -0.20292762 -136.00394
95905000 -0.22300135 -136.37825
96007500 -0.18916021 -136.23491
96110000 -0.17906386 -136.53569
96212500 -0.22158115 -136.50604
96315000 -0.17420034 -136.21922
96417500 -0.16628639 -136.29675
96520000 -0.21994275 -136.31494
96622500 -0.22120664 -136.10521
96725000 -0.19350465 -136.53947
96827500 -0.20177104 -136.80775
96930000 -0.24248363 -136.9624
97032500 -0.20697235 -136.41081
97135000 -0.22373863 -136.92308
97237500 -0.22159873 -137.1277
97340000 -0.20165676 -136.9409
97442500 -0.18091944 -137.04518
97545000 -0.18789782 -137.18059
97647500 -0.10036665 -137.64587
97750000 -0.23270103 -137.55568
97852500 -0.20377441 -137.17015
97955000 -0.2611694 -137.76106
98057500 -0.18650126 -137.49004
98160000 -0.18204942 -137.51244
98262500 -0.23265606 -137.71898
98365000 -0.1943159 -137.48463
98467500 -0.15441301 -137.80841
98570000 -0.18980205 -137.57649
98672500 -0.20864312 -137.55223
98775000 -0.18307722 -137.85126
98877500 -0.2090005 -138.09448
98980000 -0.18185522 -138.00894
99082500 -0.19202085 -138.2065
99185000 -0.22009711 -138.12935
99287500 -0.24536353 -138.26717
99390000 -0.18016182 -138.07396
99492500 -0.16617301 -138.26465
99595000 -0.20612244 -138.48743
99697500 -0.20039316 -138.48161
99800000 -0.18545564 -138.00943
99902500 -0.22071952 -138.36444
100005000 -0.18347554 -138.27507
100107500 -0.27811769 -138.74792
100210000 -0.18923242 -138.45114
100312500 -0.20089732 -138.76962
100415000 -0.20046122 -138.7319
100517500 -0.19865665 -138.44876
100620000 -0.16871229 -139.08537
100722500 -0.24619296 -138.67979
100825000 -0.2247501 -138.94734
100927500 -0.18196522 -138.87354
101030000 -0.17229506 -138.96884
101132500 -0.21044865 -138.86238
101235000 -0.19719416 -138.93919
101337500 -0.16200627 -139.48604
101440000 -0.17145152 -139.44759
101542500 -0.21850023 -139.18655
101645000 -0.25223154 -139.46208
101747500 -0.1960547 -139.3324
101850000 -0.163214 -139.32034
101952500 -0.1861196 -139.52618
102055000 -0.18623659 -139.75847
102157500 -0.18322414 -139.35057
102260000 -0.15417902 -139.5817
102362500 -0.19577082 -139.75621
102465000 -0.21061516 -140.05128
102567500 -0.20289645 -139.81259
102670000 -0.15037151 -139.79872
102772500 -0.19116831 -140.0094
102875000 -0.18573742 -139.78345
102977500 -0.18954036 -139.79337
103080000 -0.19658138 -139.95828
103182500 -0.15225579 -139.91609
103285000 -0.1382504 -140.07739
103387500 -0.15142131 -140.16687
103490000 -0.18151388 -140.55463
103592500 -0.23353446 -140.19939
103695000 -0.14255138 -140.53329
103797500 -0.1903449 -140.54535
103900000 -0.14220169 -140.35947
104002500 -0.18544815 -140.47026
104105000 -0.19537722 -140.67511
104207500 -0.15745594 -140.56212
104310000 -0.13632312 -140.754
104412500 -0.20573667 -140.8028
104515000 -0.16710246 -140.56813
104617500 -0.19418246 -140.99043
104720000 -0.17728072 -140.70146
104822500 -0.16916049 -140.97287
104925000 -0.15530267 -140.88268
105027500 -0.15397336 -141.17099
105130000 -0.16499719 -141.11328
105232500 -0.15472135 -141.0385
105335000 -0.1823671 -141.21667
105437500 -0.19627585 -140.97046
105540000 -0.18333627 -141.54677
105642500 -0.1623773 -141.33568
105745000 -0.17551079 -141.3557
105847500 -0.15902473 -140.98248
105950000 -0.19608398 -141.40385
106052500 -0.21669145 -141.4278
106155000 -0.15527605 -141.37057
106257500 -0.2047596 -141.78864
106360000 -0.16612004 -141.78032
106462500 -0.16847327 -141.64986
106565000 -0.18018757 -142.06963
106667500 -0.18272011 -141.632
106770000 -0.16753139 -141.91377
106872500 -0.18291467 -142.13239
106975000 -0.1844546 -141.83368
107077500 -0.14839487 -141.93051
107180000 -0.19057567 -141.99315
107282500 -0.14951882 -141.92587
107385000 -0.15078346 -142.30148
107487500 -0.19386373 -142.33768
107590000 -0.22997041 -142.35046
107692500 -0.19926323 -142.21661
107795000 -0.15034632 -142.31351
107897500 -0.16177106 -142.08401
108000000 -0.21075873 -142.46849
