!Agilent Technologies,N5225A,MY51441201,A.09.90.19
!Agilent N5225A: A.09.90.19
!Date: Wednesday, April 25, 2018 14:37:38
!Correction: S11(Full 1 Port(1)) 
!S1P File: Measurement: S11:
# Hz S  dB   R 50
87500000 -1.6022829 -131.23302
87602500 -1.6057816 -131.19348
87705000 -1.5312103 -131.45885
87807500 -1.5891322 -131.77309
87910000 -1.5867939 -131.14952
88012500 -1.6288687 -131.28319
88115000 -1.5796617 -131.69725
88217500 -1.5972673 -131.41075
88320000 -1.5159308 -131.56418
88422500 -1.6234688 -131.98193
88525000 -1.5561723 -132.34468
88627500 -1.552062 -132.30405
88730000 -1.4858253 -131.84859
88832500 -1.5418226 -132.04195
88935000 -1.4912281 -131.81975
89037500 -1.5831012 -131.68463
89140000 -1.5302256 -132.0094
89242500 -1.5707899 -132.18158
89345000 -1.4660907 -132.68129
89447500 -1.5009643 -132.30818
89550000 -1.421355 -132.44533
89652500 -1.4991702 -132.70898
89755000 -1.4385437 -132.31273
89857500 -1.4945698 -133.04123
89960000 -1.4868543 -132.85562
90062500 -1.470083 -132.74399
90165000 -1.4646941 -132.95207
90267500 -1.5006117 -133.12413
90370000 -1.4209901 -133.07498
90472500 -1.4366602 -133.50826
90575000 -1.4327067 -132.98961
90677500 -1.4029064 -133.69453
90780000 -1.4143237 -133.52293
90882500 -1.4632773 -133.15062
90985000 -1.3998631 -133.62769
91087500 -1.4341823 -133.40303
91190000 -1.3916141 -133.85223
91292500 -1.4433556 -133.99043
91395000 -1.4029038 -133.92654
91497500 -1.4416115 -133.67398
91600000 -1.4180232 -133.79716
91702500 -1.3331697 -134.07253
91805000 -1.4196752 -134.10847
91907500 -1.3645996 -134.21179
92010000 -1.3806162 -134.21996
92112500 -1.3861871 -134.13077
92215000 -1.3523594 -134.23535
92317500 -1.3648213 -134.30748
92420000 -1.3825561 -134.79076
92522500 -1.3700798 -134.4147
92625000 -1.3736033 -134.25172
92727500 -1.2923778 -134.73915
92830000 -1.2503251 -134.39136
92932500 -1.3435234 -134.89316
93035000 -1.3131219 -134.786
93137500 -1.320256 -134.33528
93240000 -1.3755509 -135.01013
93342500 -1.3337995 -134.58743
93445000 -1.3137468 -134.72392
93547500 -1.3606158 -134.78426
93650000 -1.3336215 -134.92487
93752500 -1.2477967 -134.78661
93855000 -1.2737596 -135.31606
93957500 -1.2822094 -135.45493
94060000 -1.2758738 -135.134
94162500 -1.2594318 -135.06972
94265000 -1.3457048 -135.28658
94367500 -1.2630767 -135.41484
94470000 -1.2809426 -135.7549
94572500 -1.2783502 -135.64017
94675000 -1.3343985 -135.56151
94777500 -1.2579921 -135.98276
94880000 -1.3104011 -135.41132
94982500 -1.2711533 -136.04593
95085000 -1.2492533 -136.07721
95187500 -1.2705085 -136.07021
95290000 -1.2394354 -136.24438
95392500 -1.225253 -135.95735
95495000 -1.2236577 -136.04535
95597500 -1.1887118 -135.95882
95700000 -1.3281525 -136.13019
95802500 -1.2688042 -136.11082
95905000 -1.2425287 -136.40958
96007500 -1.2062423 -136.40491
96110000 -1.2062383 -136.58463
96212500 -1.2326013 -136.63841
96315000 -1.1958748 -136.37363
96417500 -1.203092 -136.5023
96520000 -1.2386725 -136.61127
96622500 -1.2317606 -136.49509
96725000 -1.1879054 -136.70709
96827500 -1.2428237 -137.01509
96930000 -1.2433543 -136.93881
97032500 -1.2052715 -136.76233
97135000 -1.2438331 -137.17833
97237500 -1.2392761 -136.97481
97340000 -1.2424911 -137.11333
97442500 -1.1726185 -136.97693
97545000 -1.1876484 -137.51256
97647500 -1.1056153 -137.44322
97750000 -1.205691 -137.31436
97852500 -1.1998656 -137.50708
97955000 -1.2257178 -137.81026
98057500 -1.206095 -137.59128
98160000 -1.1377085 -137.67102
98262500 -1.2281998 -137.36566
98365000 -1.1688749 -137.45541
98467500 -1.1510749 -137.64755
98570000 -1.1434184 -137.84721
98672500 -1.1638682 -137.78409
98775000 -1.1218221 -138.10484
98877500 -1.1747274 -138.11577
98980000 -1.1574367 -138.23262
99082500 -1.1388996 -138.06615
99185000 -1.1770595 -138.02371
99287500 -1.1434261 -138.3931
99390000 -1.1465362 -138.02858
99492500 -1.0788563 -138.17555
99595000 -1.1530343 -138.38669
99697500 -1.135959 -138.32387
99800000 -1.1312864 -137.95341
99902500 -1.1791403 -138.65555
100005000 -1.1447687 -138.32495
100107500 -1.2366146 -138.79042
100210000 -1.1417977 -138.44043
100312500 -1.1074718 -138.87329
100415000 -1.1229756 -138.80408
100517500 -1.1242304 -138.70998
100620000 -1.1345868 -139.01131
100722500 -1.1439327 -138.71263
100825000 -1.1922961 -139.15662
100927500 -1.1474608 -138.95464
101030000 -1.1090758 -139.06367
101132500 -1.1304665 -138.95967
101235000 -1.1133235 -139.01733
101337500 -1.0931773 -139.34344
101440000 -1.1002603 -139.36957
101542500 -1.1165322 -139.34319
101645000 -1.1702805 -139.50169
101747500 -1.1215085 -139.21005
101850000 -1.1135546 -139.44415
101952500 -1.145631 -139.39273
102055000 -1.1322808 -139.60327
102157500 -1.1394744 -139.50679
102260000 -1.0764052 -139.65778
102362500 -1.1303065 -139.76875
102465000 -1.0702053 -140.00676
102567500 -1.1452763 -139.76958
102670000 -1.0832317 -139.603
102772500 -1.0813906 -140.06616
102875000 -1.0872451 -139.90208
102977500 -1.114271 -139.99055
103080000 -1.0927497 -139.96242
103182500 -1.0852937 -140.02016
103285000 -1.0542849 -139.99712
103387500 -1.047531 -140.07639
103490000 -1.1078749 -140.51413
103592500 -1.0873556 -140.29819
103695000 -1.0335202 -140.54785
103797500 -1.0574087 -140.38815
103900000 -1.0440214 -140.39694
104002500 -1.0879177 -140.44341
104105000 -1.0536993 -140.40886
104207500 -1.0372558 -140.58089
104310000 -1.0353086 -140.64995
104412500 -1.0890121 -140.98259
104515000 -1.0371603 -140.40562
104617500 -1.0508287 -141.04253
104720000 -1.0446373 -140.71313
104822500 -1.0442365 -140.90826
104925000 -1.0364618 -140.66487
105027500 -1.0727355 -141.22731
105130000 -1.0162089 -140.89656
105232500 -1.0349137 -141.20467
105335000 -1.0392762 -140.89925
105437500 -1.0309952 -141.03609
105540000 -1.0152088 -141.43779
105642500 -1.025574 -141.0537
105745000 -1.0543423 -141.27458
105847500 -1.0356787 -141.10857
105950000 -1.0697881 -141.27448
106052500 -1.0533394 -141.61475
106155000 -1.0372386 -141.48074
106257500 -1.0510927 -141.6017
106360000 -0.98056114 -141.69528
106462500 -0.99185997 -141.55229
106565000 -1.0210879 -141.88205
106667500 -1.001408 -141.66632
106770000 -1.0091674 -141.86815
106872500 -1.0197358 -142.14079
106975000 -1.0677311 -142.06656
107077500 -1.0331432 -142.22795
107180000 -1.0120395 -141.76613
107282500 -1.016907 -141.86057
107385000 -1.0112416 -142.25516
107487500 -1.0340983 -142.16534
107590000 -1.0253404 -142.3857
107692500 -1.0574255 -142.32765
107795000 -0.96819079 -142.12766
107897500 -1.0085187 -142.08597
108000000 -1.0196131 -142.47337
