!Agilent Technologies,N5225A,MY51441201,A.09.90.19
!Agilent N5225A: A.09.90.19
!Date: Wednesday, April 25, 2018 14:37:01
!Correction: S11(Full 1 Port(1)) 
!S1P File: Measurement: S11:
# Hz S  dB   R 50
87500000 -8.1861048 -141.62547
87602500 -8.1455879 -141.89159
87705000 -8.14676 -141.474
87807500 -8.0705986 -141.74164
87910000 -8.1001196 -141.35977
88012500 -8.1510506 -141.42093
88115000 -8.0432529 -141.27936
88217500 -8.1414557 -141.31351
88320000 -8.0050182 -140.93097
88422500 -8.1616173 -141.48969
88525000 -8.0814734 -141.54935
88627500 -8.0439634 -141.99887
88730000 -8.0328541 -141.22113
88832500 -8.0340395 -141.30069
88935000 -7.9618134 -141.16512
89037500 -8.1298437 -140.9263
89140000 -8.0274982 -141.14595
89242500 -8.0292072 -140.84648
89345000 -7.8778219 -141.33122
89447500 -7.9400597 -140.87828
89550000 -7.7844329 -141.02234
89652500 -7.8510003 -140.68411
89755000 -7.8328514 -140.32278
89857500 -7.8493986 -141.59727
89960000 -7.7838659 -141.0278
90062500 -7.7775207 -140.6774
90165000 -7.724452 -140.89937
90267500 -7.745194 -140.9386
90370000 -7.6790547 -140.82368
90472500 -7.6667166 -140.8479
90575000 -7.6822362 -140.55876
90677500 -7.6162057 -140.23457
90780000 -7.5789499 -140.98257
90882500 -7.6556468 -140.25253
90985000 -7.5797424 -140.44649
91087500 -7.6068926 -140.08875
91190000 -7.4515266 -140.88145
91292500 -7.5050707 -140.69327
91395000 -7.5630403 -140.87518
91497500 -7.4977474 -140.03998
91600000 -7.5245638 -140.28175
91702500 -7.4050736 -140.14296
91805000 -7.4043269 -140.49315
91907500 -7.4127574 -139.8913
92010000 -7.3946524 -139.90051
92112500 -7.4211698 -140.44185
92215000 -7.3894854 -140.03413
92317500 -7.3918986 -140.24327
92420000 -7.3520498 -140.31097
92522500 -7.3663597 -140.25555
92625000 -7.3871493 -139.98155
92727500 -7.3079228 -139.95268
92830000 -7.2785645 -139.96786
92932500 -7.3330293 -140.05161
93035000 -7.3146276 -140.22229
93137500 -7.3556385 -139.6579
93240000 -7.3060641 -139.80865
93342500 -7.3020487 -139.92711
93445000 -7.3618464 -140.16306
93547500 -7.3096952 -139.72777
93650000 -7.3263359 -139.63239
93752500 -7.2097902 -139.48964
93855000 -7.1568069 -139.64412
93957500 -7.2213883 -140.0421
94060000 -7.2274952 -139.57291
94162500 -7.2109461 -140.01346
94265000 -7.2244821 -140.04808
94367500 -7.2502518 -139.47232
94470000 -7.1932611 -139.66637
94572500 -7.1475463 -139.71892
94675000 -7.194644 -139.77541
94777500 -7.1784868 -140.19444
94880000 -7.2062354 -139.79155
94982500 -7.1248631 -139.82314
95085000 -7.1238894 -139.8667
95187500 -7.0864854 -139.87741
95290000 -7.1070666 -139.70818
95392500 -7.0348253 -139.46057
95495000 -7.0174046 -139.0674
95597500 -6.9963317 -138.96556
95700000 -7.0443468 -139.45862
95802500 -6.9214864 -139.05556
95905000 -6.9561734 -139.53589
96007500 -6.9072533 -139.11769
96110000 -6.9062729 -139.58275
96212500 -6.9529023 -139.49901
96315000 -6.797812 -138.98456
96417500 -6.8216424 -138.94006
96520000 -6.821754 -139.51526
96622500 -6.8280339 -138.8416
96725000 -6.8278799 -139.07051
96827500 -6.7381911 -139.20052
96930000 -6.757812 -139.21272
97032500 -6.7734733 -138.62744
97135000 -6.6998577 -139.38805
97237500 -6.7145271 -139.35747
97340000 -6.717957 -139.06003
97442500 -6.6356707 -138.92842
97545000 -6.6943469 -139.02017
97647500 -6.6126204 -139.17818
97750000 -6.6210113 -139.44403
97852500 -6.6268029 -139.30962
97955000 -6.6161447 -139.12404
98057500 -6.5969515 -139.11162
98160000 -6.6017714 -139.38419
98262500 -6.5865588 -139.09567
98365000 -6.5174899 -138.86588
98467500 -6.5496893 -138.82004
98570000 -6.578908 -139.40086
98672500 -6.6090755 -139.01282
98775000 -6.5392966 -139.17101
98877500 -6.5430026 -139.06566
98980000 -6.5593777 -139.06491
99082500 -6.5244894 -139.13544
99185000 -6.4896073 -139.18843
99287500 -6.4885669 -139.3671
99390000 -6.4880304 -138.74062
99492500 -6.3890443 -138.82518
99595000 -6.4864101 -139.00114
99697500 -6.4605589 -138.84386
99800000 -6.4781508 -138.69469
99902500 -6.5271196 -138.98854
100005000 -6.4338613 -138.87125
100107500 -6.4828677 -139.20786
100210000 -6.4690037 -138.92418
100312500 -6.4463639 -139.06174
100415000 -6.3743448 -138.65356
100517500 -6.3929758 -138.66681
100620000 -6.3674979 -139.33261
100722500 -6.3828692 -138.9792
100825000 -6.3785858 -139.00177
100927500 -6.3631344 -138.69714
101030000 -6.3333092 -138.72256
101132500 -6.3332186 -138.6853
101235000 -6.3202109 -138.38782
101337500 -6.2690811 -139.06339
101440000 -6.2196474 -139.12393
101542500 -6.2716165 -139.03784
101645000 -6.2810087 -139.44174
101747500 -6.184217 -138.64394
101850000 -6.1530581 -138.81705
101952500 -6.1914482 -138.96045
102055000 -6.1528211 -138.8333
102157500 -6.1333203 -138.37146
102260000 -6.1219912 -138.8197
102362500 -6.1362624 -138.97963
102465000 -6.0984163 -138.70422
102567500 -6.1115923 -138.88722
102670000 -6.0557985 -138.52048
102772500 -6.0189977 -138.54677
102875000 -6.027658 -138.66205
102977500 -6.0402737 -139.01694
103080000 -6.0142193 -138.94397
103182500 -6.0317807 -138.6039
103285000 -5.9619045 -138.48799
103387500 -5.9467807 -138.97412
103490000 -5.9277835 -139.67574
103592500 -5.983541 -138.77238
103695000 -5.8817573 -138.89447
103797500 -5.9154277 -138.8306
103900000 -5.8724623 -138.61
104002500 -5.8487844 -138.46443
104105000 -5.8319201 -139.10594
104207500 -5.8101945 -138.74248
104310000 -5.8529563 -139.04735
104412500 -5.8510437 -138.87859
104515000 -5.8274002 -138.5914
104617500 -5.8710938 -138.87985
104720000 -5.8100605 -138.8817
104822500 -5.8275566 -138.98689
104925000 -5.8058047 -138.6382
105027500 -5.8178291 -139.00992
105130000 -5.7770152 -138.78316
105232500 -5.7783098 -138.96786
105335000 -5.7435832 -138.77187
105437500 -5.7941966 -138.90674
105540000 -5.7800732 -139.01726
105642500 -5.8006001 -138.58253
105745000 -5.7400222 -139.04149
105847500 -5.7385616 -138.69853
105950000 -5.7545066 -138.73602
106052500 -5.7278714 -138.77626
106155000 -5.726263 -138.43176
106257500 -5.7568979 -138.80693
106360000 -5.6823478 -139.36404
106462500 -5.6215615 -139.04433
106565000 -5.6832232 -138.82706
106667500 -5.6656222 -138.75989
106770000 -5.6323748 -139.10713
106872500 -5.6372943 -139.08327
106975000 -5.6488199 -139.30978
107077500 -5.6538253 -138.9613
107180000 -5.6118417 -138.81613
107282500 -5.5863099 -138.78807
107385000 -5.5799685 -138.96669
107487500 -5.5913754 -139.16948
107590000 -5.5999985 -139.1308
107692500 -5.6121597 -138.7655
107795000 -5.5192618 -138.79395
107897500 -5.4932938 -138.6582
108000000 -5.5412998 -139.06146
