!Agilent Technologies,N5225A,MY51441201,A.09.90.19
!Agilent N5225A: A.09.90.19
!Date: Wednesday, April 25, 2018 14:49:17
!Correction: S11(Full 1 Port(1)) 
!S1P File: Measurement: S11:
# Hz S  dB   R 50
87500000 -9.2929182 105.71375
87602500 -9.2475462 105.9754
87705000 -9.3819313 105.76736
87807500 -9.4183302 105.94537
87910000 -9.3881292 105.80112
88012500 -9.4381199 104.19337
88115000 -9.5289249 105.16233
88217500 -9.4393854 104.43491
88320000 -9.6031408 104.41685
88422500 -9.4778252 103.89082
88525000 -9.6214418 104.05402
88627500 -9.5799236 103.64989
88730000 -9.6373425 103.48837
88832500 -9.8141909 103.02658
88935000 -9.8364735 102.69964
89037500 -9.733325 101.32007
89140000 -9.8768568 101.36758
89242500 -9.9997625 102.11045
89345000 -9.9964342 101.42376
89447500 -9.9969215 101.30351
89550000 -10.117675 100.54039
89652500 -10.108304 100.67456
89755000 -10.20429 99.865753
89857500 -10.186369 100.21645
89960000 -10.170308 100.36425
90062500 -10.344214 99.71096
90165000 -10.48012 98.691963
90267500 -10.464544 99.739128
90370000 -10.454205 98.780434
90472500 -10.590487 98.453232
90575000 -10.582987 98.094849
90677500 -10.642638 98.411171
90780000 -10.659122 97.79837
90882500 -10.722928 97.039413
90985000 -10.651667 97.383812
91087500 -10.891729 96.484283
91190000 -10.86677 96.977348
91292500 -10.982923 96.636475
91395000 -11.001066 96.185417
91497500 -10.982046 94.907013
91600000 -11.048527 94.974632
91702500 -11.29255 95.671608
91805000 -11.18577 94.72525
91907500 -11.26029 94.507744
92010000 -11.337034 94.45256
92112500 -11.402404 93.966957
92215000 -11.480565 93.276917
92317500 -11.624218 92.95842
92420000 -11.540489 93.762497
92522500 -11.57139 92.067513
92625000 -11.592506 92.12471
92727500 -11.782487 91.682114
92830000 -11.885701 91.707199
92932500 -11.827411 90.838959
93035000 -11.867368 90.780502
93137500 -11.932981 90.243034
93240000 -12.079068 89.883148
93342500 -12.072702 88.548958
93445000 -11.99632 88.840836
93547500 -12.0434 88.329773
93650000 -12.148821 87.389145
93752500 -12.366809 87.780746
93855000 -12.491201 88.012138
93957500 -12.396918 87.471634
94060000 -12.505194 87.029175
94162500 -12.525642 86.492584
94265000 -12.519514 85.673729
94367500 -12.600045 84.710251
94470000 -12.576646 84.731308
94572500 -12.804701 83.833282
94675000 -12.750208 82.90731
94777500 -12.845299 83.230911
94880000 -12.867493 82.510269
94982500 -13.073225 82.72966
95085000 -12.961925 81.066635
95187500 -13.125273 81.413498
95290000 -13.111885 80.480515
95392500 -13.355238 80.388367
95495000 -13.316061 79.86142
95597500 -13.428524 79.791779
95700000 -13.285924 78.453049
95802500 -13.582285 78.527733
95905000 -13.502326 77.968391
96007500 -13.677811 77.247551
96110000 -13.713604 76.306297
96212500 -13.630347 76.255089
96315000 -14.089626 75.518143
96417500 -14.075215 74.609085
96520000 -13.94857 74.783882
96622500 -14.130237 74.116196
96725000 -14.259307 73.387856
96827500 -14.282997 73.021057
96930000 -14.333673 72.134842
97032500 -14.398384 70.737373
97135000 -14.398551 71.420753
97237500 -14.712346 71.482941
97340000 -14.802708 70.690399
97442500 -14.779972 69.26136
97545000 -14.86337 68.605682
97647500 -14.935257 68.397804
97750000 -14.88468 68.040413
97852500 -15.086596 67.136238
97955000 -15.263392 66.61718
98057500 -15.493934 65.155556
98160000 -15.355173 65.13456
98262500 -15.390655 64.410706
98365000 -15.622976 63.608891
98467500 -15.652532 62.471478
98570000 -15.627587 61.912495
98672500 -15.650414 60.557072
98775000 -15.83848 59.663704
98877500 -15.815354 59.802044
98980000 -15.98077 59.77927
99082500 -16.050558 58.778915
99185000 -16.315868 58.037197
99287500 -16.011374 55.757973
99390000 -16.278397 54.716511
99492500 -16.462351 55.229633
99595000 -16.268154 53.813702
99697500 -16.361559 51.31675
99800000 -16.318087 52.392178
99902500 -16.353012 50.518536
100005000 -16.646482 50.221291
100107500 -16.692076 50.326767
100210000 -16.690132 48.16293
100312500 -16.795713 47.974083
100415000 -16.955362 45.641762
100517500 -16.649588 45.347168
100620000 -16.992449 45.202885
100722500 -16.851633 44.094341
100825000 -17.0441 41.969662
100927500 -16.983347 41.212582
101030000 -16.975012 39.278454
101132500 -17.048367 39.69561
101235000 -17.129601 37.227238
101337500 -17.167496 36.644161
101440000 -17.264816 36.229221
101542500 -17.359617 34.917568
101645000 -17.325909 35.670609
101747500 -17.425692 32.130955
101850000 -17.375589 32.010612
101952500 -17.381704 30.417837
102055000 -17.442163 28.822634
102157500 -17.355476 27.609455
102260000 -17.3594 27.537563
102362500 -17.666592 24.932341
102465000 -17.667892 24.323586
102567500 -17.618036 24.025038
102670000 -17.761484 22.662003
102772500 -17.735741 20.919716
102875000 -17.896347 18.993053
102977500 -17.719074 18.596569
103080000 -17.76754 17.300375
103182500 -17.697693 15.404696
103285000 -17.617208 14.269664
103387500 -17.840019 13.196606
103490000 -18.142878 13.456687
103592500 -17.816149 10.789709
103695000 -17.79283 9.4333916
103797500 -17.789518 8.1748695
103900000 -17.845512 6.3239746
104002500 -17.842468 4.8945818
104105000 -17.871241 4.6456232
104207500 -17.860344 3.1094899
104310000 -17.71117 1.8427272
104412500 -17.818039 0.54622877
104515000 -17.734768 -0.92118174
104617500 -17.715345 -1.0593832
104720000 -17.354509 -2.9138751
104822500 -17.563082 -3.5629263
104925000 -17.568882 -4.8804893
105027500 -17.638117 -5.6591473
105130000 -17.561653 -9.3334465
105232500 -17.273659 -9.476203
105335000 -17.199408 -9.9888496
105437500 -17.351345 -11.242733
105540000 -17.204914 -11.910203
105642500 -17.082836 -12.928762
105745000 -17.038967 -13.618248
105847500 -16.973867 -14.163224
105950000 -16.766764 -16.800505
106052500 -16.725533 -16.150286
106155000 -16.625313 -17.783209
106257500 -16.634197 -18.601969
106360000 -16.618443 -19.557467
106462500 -16.406792 -21.325182
106565000 -16.329563 -21.285046
106667500 -16.253267 -22.745707
106770000 -16.304798 -23.707714
106872500 -16.064932 -23.623726
106975000 -16.070404 -25.195036
107077500 -16.016861 -25.332588
107180000 -15.776872 -26.374935
107282500 -15.694371 -27.59746
107385000 -15.642303 -28.002394
107487500 -15.695024 -28.560772
107590000 -15.573475 -30.451775
107692500 -15.521074 -30.256779
107795000 -15.35583 -31.699472
107897500 -15.280104 -32.797836
108000000 -15.192481 -33.418476
