!Agilent Technologies,N5225A,MY51441201,A.09.90.19
!Agilent N5225A: A.09.90.19
!Date: Wednesday, April 25, 2018 14:36:32
!Correction: S11(Full 1 Port(1)) 
!S1P File: Measurement: S11:
# Hz S  dB   R 50
87500000 -4.6563621 94.474373
87602500 -4.5914726 94.77169
87705000 -4.7065344 94.047958
87807500 -4.6614008 94.128464
87910000 -4.7348537 93.604683
88012500 -4.7571263 93.282776
88115000 -4.7664304 93.464172
88217500 -4.7122002 93.019714
88320000 -4.7891579 92.579933
88422500 -4.7232242 92.242729
88525000 -4.8224955 92.097839
88627500 -4.791748 91.614105
88730000 -4.8537335 91.291672
88832500 -4.8754516 90.884933
88935000 -4.9041977 90.666847
89037500 -4.8525457 89.953377
89140000 -4.8761253 89.703552
89242500 -4.9698758 89.772758
89345000 -4.9391847 88.989403
89447500 -4.9376082 89.432007
89550000 -5.0378962 88.840866
89652500 -4.9564638 88.517166
89755000 -5.0661335 87.718201
89857500 -5.0040283 87.960747
89960000 -5.0633979 87.81308
90062500 -5.1450315 87.698845
90165000 -5.0358958 86.230675
90267500 -5.147181 86.808205
90370000 -5.1227961 86.578842
90472500 -5.257699 86.0905
90575000 -5.1039248 85.989456
90677500 -5.1734152 85.539063
90780000 -5.256525 84.671326
90882500 -5.2278004 84.389847
90985000 -5.2591972 84.57354
91087500 -5.2422028 83.998169
91190000 -5.2475348 83.862976
91292500 -5.2987761 83.709366
91395000 -5.325861 83.020203
91497500 -5.3985977 82.207664
91600000 -5.3578424 81.888794
91702500 -5.4015312 81.809761
91805000 -5.4211464 81.469376
91907500 -5.3838048 81.54953
92010000 -5.4857159 81.455696
92112500 -5.4779243 80.358055
92215000 -5.5466294 79.95842
92317500 -5.5315161 80.003586
92420000 -5.543716 79.693306
92522500 -5.5311584 79.131546
92625000 -5.6051717 78.884621
92727500 -5.6052451 77.954216
92830000 -5.6944475 78.772552
92932500 -5.6985121 77.109741
93035000 -5.6459966 77.019577
93137500 -5.7225356 76.550568
93240000 -5.6940227 76.18605
93342500 -5.7537189 75.762924
93445000 -5.7171297 75.439301
93547500 -5.7692857 75.057083
93650000 -5.7962422 74.897423
93752500 -5.8221688 74.353897
93855000 -5.9541593 74.230476
93957500 -5.8399801 73.778923
94060000 -5.8546143 73.226036
94162500 -5.8793869 72.628716
94265000 -5.9245701 71.954132
94367500 -5.9255152 71.410034
94470000 -5.9838257 71.234581
94572500 -5.9789381 71.119202
94675000 -5.9655166 70.68602
94777500 -6.1229167 70.542557
94880000 -5.9735498 69.811775
94982500 -6.0388641 69.422401
95085000 -6.0379634 69.079376
95187500 -6.0828309 68.468872
95290000 -6.1324549 67.824554
95392500 -6.1605582 67.657043
95495000 -6.1365104 67.275803
95597500 -6.1990447 67.330643
95700000 -6.1505036 66.489143
95802500 -6.2542677 65.980721
95905000 -6.3012767 65.321045
96007500 -6.2042918 64.838371
96110000 -6.3364654 64.275612
96212500 -6.2324405 64.492256
96315000 -6.4562292 63.672287
96417500 -6.4299822 63.209366
96520000 -6.2795024 62.687988
96622500 -6.3548932 61.78904
96725000 -6.3815579 62.05666
96827500 -6.4146924 61.268784
96930000 -6.4379816 61.353146
97032500 -6.4454927 60.17289
97135000 -6.5126081 60.203079
97237500 -6.5330491 59.525558
97340000 -6.6169724 58.936733
97442500 -6.5701532 58.576073
97545000 -6.582757 57.905899
97647500 -6.6153617 58.055721
97750000 -6.6139884 57.625206
97852500 -6.6322093 57.007427
97955000 -6.7160654 56.332851
98057500 -6.8183246 55.093391
98160000 -6.6366816 55.197861
98262500 -6.6963587 54.65741
98365000 -6.7597704 54.63427
98467500 -6.8036518 53.744232
98570000 -6.8415818 53.368324
98672500 -6.7852564 52.706299
98775000 -6.8580947 51.877808
98877500 -6.8836827 51.915543
98980000 -6.9231577 51.60479
99082500 -6.9434838 51.009342
99185000 -6.9369683 50.572865
99287500 -6.8723993 49.993736
99390000 -6.9264693 49.234142
99492500 -6.9940462 48.652943
99595000 -6.9831171 48.019421
99697500 -6.9600153 47.282654
99800000 -7.034627 47.416702
99902500 -6.9616923 46.587208
100005000 -7.087512 46.002438
100107500 -7.1180182 46.142212
100210000 -7.0831161 45.178024
100312500 -7.0858283 44.111977
100415000 -7.1533375 43.636368
100517500 -7.1142683 42.970264
100620000 -7.151166 42.910549
100722500 -7.1093216 42.367378
100825000 -7.1750884 41.780579
100927500 -7.1215 41.152386
101030000 -7.1672182 40.464169
101132500 -7.2192674 40.106575
101235000 -7.1786728 38.73457
101337500 -7.2271824 39.020309
101440000 -7.2641816 38.709644
101542500 -7.2317743 37.868263
101645000 -7.2374763 37.374451
101747500 -7.2719207 36.693111
101850000 -7.2319059 36.166527
101952500 -7.2748718 36.016102
102055000 -7.2926903 35.027004
102157500 -7.2088885 34.092033
102260000 -7.301703 33.784557
102362500 -7.3069906 33.284504
102465000 -7.3217192 32.322479
102567500 -7.3844771 31.745056
102670000 -7.4041438 31.661037
102772500 -7.4088922 31.085951
102875000 -7.5009813 30.125729
102977500 -7.3711925 29.663246
103080000 -7.4608541 28.92675
103182500 -7.4161372 28.501213
103285000 -7.3645315 27.730146
103387500 -7.4210067 27.132006
103490000 -7.5180063 26.777113
103592500 -7.441678 25.66004
103695000 -7.4887514 25.230177
103797500 -7.5704002 24.887186
103900000 -7.5400233 23.765408
104002500 -7.5293832 23.623838
104105000 -7.5660667 22.991957
104207500 -7.51053 22.187372
104310000 -7.5844259 21.749298
104412500 -7.5560594 21.315584
104515000 -7.4686832 20.413046
104617500 -7.510345 19.902235
104720000 -7.5431871 18.821035
104822500 -7.5845199 18.559692
104925000 -7.4808016 17.94388
105027500 -7.5874863 17.339489
105130000 -7.5791035 16.568825
105232500 -7.5699749 15.873273
105335000 -7.5229592 15.130966
105437500 -7.6209016 14.623899
105540000 -7.4768152 13.751599
105642500 -7.5529842 13.597693
105745000 -7.5346603 12.863233
105847500 -7.6175747 12.493331
105950000 -7.5496049 11.404195
106052500 -7.4822936 11.082669
106155000 -7.5200162 10.822174
106257500 -7.5408072 9.8117981
106360000 -7.5527921 9.0172453
106462500 -7.5435619 8.1710014
106565000 -7.5223684 7.757782
106667500 -7.5366783 7.3159251
106770000 -7.5420136 6.8693128
106872500 -7.4985833 6.1180129
106975000 -7.5069194 5.5607762
107077500 -7.4575958 5.0782948
107180000 -7.4462647 3.9627743
107282500 -7.4185925 3.7165501
107385000 -7.4524364 3.1316481
107487500 -7.4799685 2.4493673
107590000 -7.4662232 1.88281
107692500 -7.4578037 1.2504504
107795000 -7.3669348 0.6431762
107897500 -7.4325037 -0.033346962
108000000 -7.4168124 -0.70650941
