!Agilent Technologies,N5225A,MY51441201,A.09.90.19
!Agilent N5225A: A.09.90.19
!Date: Wednesday, April 25, 2018 13:02:44
!Correction: S11(Full 1 Port(1)) 
!S1P File: Measurement: S11:
# Hz S  dB   R 50
87500000 0.022673815 -6.0302687
87602500 -0.022025166 -6.2454276
87705000 -0.039990127 -6.2107563
87807500 -0.040949501 -6.0472527
87910000 -0.016701736 -5.969677
88012500 -0.049518973 -5.994904
88115000 -0.016422035 -5.3910041
88217500 -14.255029 153.65224
88320000 -2.2308002 166.63834
88422500 -1.6749643 166.27954
88525000 -1.6484412 166.38376
88627500 -1.6357231 166.60745
88730000 -1.6244571 166.70378
88832500 -1.602867 166.46318
88935000 -1.646516 166.53304
89037500 -1.6361939 166.42932
89140000 -1.6380999 166.37038
89242500 -1.5985155 166.31587
89345000 -1.5829045 166.02705
89447500 -1.5947003 166.58545
89550000 -1.6477278 166.57832
89652500 -1.6255661 166.25702
89755000 -1.5927473 166.3253
89857500 -1.6381114 166.10501
89960000 -1.5888978 166.5979
90062500 -1.6567069 166.18155
90165000 -1.5973004 166.02242
90267500 -1.6571858 166.45157
90370000 -1.6667901 166.13577
90472500 -1.6414411 165.66852
90575000 -1.6139332 166.53017
90677500 -1.6645962 166.07719
90780000 -1.6273849 166.20006
90882500 -1.705875 166.07655
90985000 -1.6662661 166.07848
91087500 -1.8648486 166.27254
91190000 -2.933975 165.98224
91292500 -8.797739 2.7875044
91395000 -0.00016605007 -6.7256799
91497500 -0.0075995261 -6.1723671
91600000 -0.043823078 -6.1279507
91702500 0.012754103 -6.3986125
91805000 -0.045444243 -6.7575116
91907500 0.064083971 -6.5385184
92010000 -0.037443779 -6.1748853
92112500 -0.034695271 -5.9697499
92215000 -0.047192015 -6.2158036
92317500 -0.093379244 -6.5760479
92420000 -0.001693025 -6.5962629
92522500 -0.023286602 -6.3695159
92625000 -0.040680781 -6.1754193
92727500 0.035869371 -6.4158473
92830000 -0.023623599 -5.9505301
92932500 0.0049905004 -6.3242016
93035000 -0.013553506 -6.3733783
93137500 -0.041954152 -6.3647079
93240000 -0.0087064942 -6.466609
93342500 -0.033674084 -6.3624415
93445000 0.016712802 -6.4227505
93547500 -0.015042206 -6.5482235
93650000 0.020882819 -6.734643
93752500 -0.039577793 -6.3399768
93855000 -0.020188849 -6.5298238
93957500 0.023323357 -6.6096897
94060000 -0.0078008482 -6.4898014
94162500 -0.019648654 -6.5015082
94265000 -1.2539238 -6.2347422
94367500 -4.5356064 164.52565
94470000 -1.8829675 165.47833
94572500 -1.6505018 165.64232
94675000 -1.6666301 165.56049
94777500 -1.6562709 165.29645
94880000 -1.5644251 165.48026
94982500 -1.624069 165.42249
95085000 -1.5639488 165.01675
95187500 -1.560043 165.31624
95290000 -1.627444 165.37364
95392500 -1.5869099 165.39717
95495000 -1.6156495 165.49159
95597500 -1.6103188 165.52466
95700000 -1.616353 165.36021
95802500 -1.6457101 165.69382
95905000 -1.6060041 164.95897
96007500 -1.5869732 165.23474
96110000 -1.6334454 165.21953
96212500 -1.5648987 165.05807
96315000 -1.6523331 165.5528
96417500 -1.6259153 165.07925
96520000 -1.6169319 165.27716
96622500 -1.6398375 165.30981
96725000 -1.6352142 165.15965
96827500 -1.6367666 165.42412
96930000 -1.6049966 165.22931
97032500 -1.6120945 165.28914
97135000 -1.7167394 165.14621
97237500 -2.1333795 164.94115
97340000 -5.1019883 164.37643
97442500 -0.7267006 -6.4471202
97545000 -0.018784923 -6.9148006
97647500 0.033959664 -6.5436459
97750000 0.01604783 -6.5103507
97852500 0.015446318 -6.9070888
97955000 -0.041594975 -6.4103632
98057500 -0.046959456 -6.8733921
98160000 0.018552836 -6.9469161
98262500 0.011543813 -6.5578442
98365000 0.00062574341 -6.7510557
98467500 -0.032281253 -6.8942351
98570000 -0.021056497 -6.849412
98672500 -0.016014678 -7.1740117
98775000 0.0045904731 -6.857399
98877500 0.0011695259 -6.6148272
98980000 0.0077998401 -7.1362424
99082500 -0.024375753 -6.7699866
99185000 -0.023619629 -6.8073659
99287500 -0.036179945 -6.947011
99390000 0.0017810394 -6.8758273
99492500 -0.024076462 -6.8985534
99595000 -0.015693696 -7.1419983
99697500 -0.018043377 -7.1524067
99800000 -0.029668925 -6.8716035
99902500 -0.017179854 -7.1558304
100005000 -0.052965187 -7.0655522
100107500 -0.085291088 -7.0764866
100210000 -0.012726836 -6.9976926
100312500 -0.033127166 -6.9762287
100415000 -8.9109707 4.8849349
100517500 -2.7746923 164.47701
100620000 -1.7259477 164.62502
100722500 -1.6078229 164.43149
100825000 -1.6582009 164.57912
100927500 -1.6565148 164.82549
101030000 -1.6166666 164.26236
101132500 -1.6224518 164.4789
101235000 -1.6246117 164.58652
101337500 -1.6083978 164.758
101440000 -1.6059225 164.46448
101542500 -1.6014779 164.64064
101645000 -1.607946 164.36154
101747500 -1.6239817 164.1657
101850000 -1.5956945 164.59294
101952500 -1.6112269 164.57909
102055000 -1.619893 164.48509
102157500 -1.6211715 164.63785
102260000 -1.5939031 164.34396
102362500 -1.6141213 164.32072
102465000 -1.6099335 164.04362
102567500 -1.6248599 164.36121
102670000 -1.6279315 164.31703
102772500 -1.6571512 164.33948
102875000 -1.6620408 164.3325
102977500 -1.6160042 164.31262
103080000 -1.6586127 164.27289
103182500 -1.6220562 164.10774
103285000 -1.7433565 164.03772
103387500 -2.4057746 164.30534
103490000 -14.620835 145.80048
103592500 -0.014139227 -7.3913951
103695000 -0.020089447 -7.2929544
103797500 -0.0320425 -7.1858511
103900000 -0.040573116 -7.4596553
104002500 -0.0048272233 -7.2846136
104105000 -0.054369602 -7.394227
104207500 0.019716252 -7.3410053
104310000 -0.046002541 -7.1258569
104412500 -0.059076041 -7.3112488
104515000 -0.037561886 -7.3313041
104617500 -0.0061241025 -7.267014
104720000 -0.022322504 -7.5070882
104822500 -0.038133327 -7.2333465
104925000 0.0072732656 -7.4346728
105027500 -0.058467031 -7.134511
105130000 -0.045683637 -7.3359323
105232500 -0.028422594 -7.476459
105335000 -0.0082613062 -7.5516648
105437500 -0.075364836 -7.5948501
105540000 -0.021004668 -7.5030618
105642500 -0.014042678 -7.4516578
105745000 -0.0057292343 -7.675765
105847500 -0.083361052 -7.1494932
105950000 -0.035794657 -7.4347739
106052500 0.021753637 -7.696178
106155000 -0.047561608 -7.5356131
106257500 -0.021635193 -7.1315045
106360000 -0.022729071 -7.7379999
106462500 -0.072163783 -7.5094585
106565000 -13.596784 152.50285
106667500 -2.1989467 163.78525
106770000 -1.5639468 163.67888
106872500 -1.6455771 163.71404
106975000 -1.6578962 163.48277
107077500 -1.6195198 163.42032
107180000 -1.6493061 163.66891
107282500 -1.6126459 163.62007
107385000 -1.6082225 163.5719
107487500 -1.6048055 163.60768
107590000 -1.61699 163.48232
107692500 -1.6438495 163.64728
107795000 -1.6092747 163.63335
107897500 -1.6098398 163.79878
108000000 -1.6330099 163.44379
