!Agilent Technologies,N5225A,MY51441201,A.09.90.19
!Agilent N5225A: A.09.90.19
!Date: Wednesday, April 25, 2018 13:03:37
!Correction: S11(Full 1 Port(1)) 
!S1P File: Measurement: S11:
# Hz S  dB   R 50
87500000 -0.095653035 -9.2922373
87602500 -0.085683301 -9.1951666
87705000 -0.071234591 -9.2913733
87807500 -0.097229615 -9.4615765
87910000 -0.099957965 -9.078742
88012500 -0.081918545 -9.336381
88115000 -0.056693558 -9.2616873
88217500 -0.15924209 -9.5507402
88320000 -0.027404115 -9.0502157
88422500 -0.045180656 -9.3880749
88525000 -0.064512588 -9.6110821
88627500 -0.079886109 -9.5967331
88730000 -0.13347234 -9.4321365
88832500 -0.14908279 -9.1423349
88935000 -0.11639771 -9.5465946
89037500 -0.046342365 -9.4686995
89140000 -0.026214566 -9.7065125
89242500 -0.10828145 -9.2894659
89345000 -0.029586179 -9.7815161
89447500 -0.082683221 -9.3004456
89550000 -0.10194688 -9.1620226
89652500 -0.079483993 -9.2856674
89755000 -0.097215556 -9.2500811
89857500 -0.081521116 -9.783556
89960000 -0.043727305 -9.6936693
90062500 -0.16379575 -9.3012733
90165000 -0.087136269 -9.7562361
90267500 -0.044272594 -9.6343517
90370000 -0.13963753 -9.4753208
90472500 -0.071555756 -9.7612247
90575000 -0.11617523 -9.5185928
90677500 -0.093163446 -9.193428
90780000 -0.097941302 -10.04801
90882500 -0.13605414 -9.9148188
90985000 -0.083297223 -9.9059076
91087500 -0.087448195 -9.5076351
91190000 -0.11873968 -9.7437668
91292500 -0.11006939 -9.6578979
91395000 -0.058461018 -9.9603033
91497500 -0.10021316 -9.5870523
91600000 -0.086317711 -9.6744328
91702500 -0.10929864 -10.21259
91805000 -0.11330164 -9.6462564
91907500 -0.013225511 -10.087115
92010000 -0.083650775 -9.7369509
92112500 -0.07646466 -9.9033976
92215000 -0.13785893 -9.9378204
92317500 -0.10856179 -9.8375063
92420000 -0.099463411 -10.003617
92522500 -0.14897834 -9.7139654
92625000 -0.13598749 -9.8293295
92727500 -0.070884556 -10.11969
92830000 -0.073500738 -9.5978107
92932500 -0.097071841 -9.882515
93035000 -0.076974437 -9.8300581
93137500 -0.097174227 -9.8428831
93240000 -0.057803094 -10.036505
93342500 -0.089234687 -10.245855
93445000 -0.086170055 -10.012481
93547500 -0.083435655 -9.9917088
93650000 -0.071175836 -10.172887
93752500 -0.096904777 -9.9526806
93855000 -0.12788159 -10.177401
93957500 -0.046059895 -10.019337
94060000 -0.062500507 -10.031178
94162500 -0.062844545 -9.9858599
94265000 -0.10082203 -10.406909
94367500 -0.12096404 -10.214264
94470000 -0.088962324 -10.124166
94572500 -0.11791498 -10.237116
94675000 -0.062419765 -10.076468
94777500 -0.096096478 -10.008344
94880000 -0.18201509 -10.499233
94982500 -0.13184291 -10.256369
95085000 -0.083938591 -10.035248
95187500 -0.078371763 -10.055392
95290000 -0.091014765 -10.248327
95392500 -0.11796557 -9.7267284
95495000 -0.1002932 -10.095651
95597500 -0.11697367 -10.146706
95700000 -0.08735048 -10.154304
95802500 -0.088791989 -10.122215
95905000 -0.042874277 -10.098336
96007500 -0.097579293 -10.127685
96110000 -0.023042571 -10.323514
96212500 -0.068743892 -10.340427
96315000 -0.13235669 -10.17123
96417500 -0.11457718 -10.088421
96520000 -0.063242115 -10.365681
96622500 -0.081791192 -10.244897
96725000 -0.11120739 -10.073749
96827500 -0.053302314 -10.22728
96930000 -0.091895834 -10.397479
97032500 -0.09913598 -10.37622
97135000 -0.064552508 -10.541963
97237500 -0.10458886 -10.534473
97340000 -0.10890923 -10.487229
97442500 -0.093357787 -10.268129
97545000 -0.089221716 -10.486796
97647500 -0.068413496 -10.263146
97750000 -0.10908376 -9.9803324
97852500 -0.040471911 -10.191632
97955000 -0.1308873 -10.589831
98057500 -0.13486592 -10.605497
98160000 -0.057994436 -10.540607
98262500 -0.094155915 -10.608027
98365000 -0.081943169 -10.469251
98467500 -0.10070125 -10.29107
98570000 -0.12737504 -10.335753
98672500 -0.12287866 -10.412075
98775000 -0.096064828 -10.647987
98877500 -0.098082632 -10.533471
98980000 -0.044059198 -10.480325
99082500 -0.10599115 -10.407236
99185000 -0.12407446 -10.406004
99287500 -0.11271623 -10.686778
99390000 -0.074683025 -10.443269
99492500 -0.10317855 -10.461054
99595000 -0.076599672 -10.452195
99697500 -0.13304576 -10.839965
99800000 -0.067229293 -10.493759
99902500 -0.11005995 -10.613164
100005000 -0.12347728 -10.615068
100107500 -0.15529701 -10.610029
100210000 -0.064930223 -10.458797
100312500 -0.10101981 -10.607975
100415000 -0.14255792 -10.662907
100517500 -0.10471347 -10.537785
100620000 -0.052187372 -10.752929
100722500 -0.10686193 -10.42794
100825000 -0.05698948 -10.783241
100927500 -0.075599171 -10.538112
101030000 -0.059010841 -10.50817
101132500 -0.1204094 -10.504078
101235000 -0.096294299 -10.842649
101337500 -0.10348018 -10.50819
101440000 -0.0879464 -10.689668
101542500 -0.13137163 -10.743267
101645000 -0.09976197 -10.778692
101747500 -0.12003734 -11.195127
101850000 -0.074631415 -11.113581
101952500 -0.11199706 -10.801911
102055000 -0.086808696 -10.747585
102157500 -0.04944123 -10.843451
102260000 -0.13960952 -10.766198
102362500 -0.10785315 -10.882598
102465000 -0.090139255 -10.795587
102567500 -0.10269044 -10.809409
102670000 -0.052924085 -10.810995
102772500 -0.11728461 -10.997428
102875000 -0.11789526 -10.558338
102977500 -0.092401981 -10.90291
103080000 -0.098274082 -11.113621
103182500 -0.12375017 -10.821415
103285000 -0.074213974 -10.687892
103387500 -0.084733397 -11.085588
103490000 -0.1220217 -10.848207
103592500 -0.093376614 -11.091023
103695000 -0.10903103 -11.045561
103797500 -0.10436267 -10.979229
103900000 -0.13632065 -11.011064
104002500 -0.091814764 -10.991474
104105000 -0.10446961 -11.030048
104207500 -0.066831604 -11.125061
104310000 -0.10711801 -10.93901
104412500 -0.11150612 -11.014082
104515000 -0.094283432 -11.08362
104617500 -0.12488305 -11.089529
104720000 -0.092462115 -11.209982
104822500 -0.099098347 -11.216257
104925000 -0.089243621 -11.104056
105027500 -0.15977634 -11.156681
105130000 -0.10012598 -11.269825
105232500 -0.09581995 -11.294224
105335000 -0.098769307 -11.31885
105437500 -0.13472335 -11.530168
105540000 -0.078959614 -11.404033
105642500 -0.065859213 -11.177476
105745000 -0.060820747 -11.324957
105847500 -0.14428 -10.767726
105950000 -0.1254584 -11.157738
106052500 -0.098298848 -11.441748
106155000 -0.15149064 -11.144155
106257500 -0.068810657 -10.992377
106360000 -0.07602229 -11.383999
106462500 -0.085162133 -11.17378
106565000 -0.10565242 -11.440597
106667500 -0.12125136 -11.32046
106770000 -0.13142601 -11.302958
106872500 -0.084629282 -11.334313
106975000 -0.13546187 -11.253959
107077500 -0.093545869 -11.538264
107180000 -0.097161405 -11.438026
107282500 -0.051567614 -11.418656
107385000 -0.10357395 -11.244377
107487500 -0.12873141 -11.407962
107590000 -0.11107162 -11.364641
107692500 -0.099188596 -11.222275
107795000 -0.071931437 -11.495505
107897500 -0.11198627 -11.542305
108000000 -0.095080927 -11.626127
