!Agilent Technologies,N5225A,MY51441201,A.09.90.19
!Agilent N5225A: A.09.90.19
!Date: Thursday, May 17, 2018 16:02:07
!Correction: S11(Full 1 Port(1)) 
!S1P File: Measurement: S11:
# Hz S  dB   R 50
87500000 -0.70799512 -17.541773
87602500 -0.76815051 -17.048965
87705000 -0.75645822 -17.441153
87807500 -0.77091581 -17.338127
87910000 -0.75164759 -17.597496
88012500 -0.71788484 -17.469833
88115000 -0.74739891 -17.597887
88217500 -0.80303717 -17.487003
88320000 -0.71198672 -18.058796
88422500 -0.74374592 -17.733475
88525000 -0.76283044 -17.787424
88627500 -0.7634877 -18.17382
88730000 -0.72641563 -18.643316
88832500 -0.74495751 -18.055573
88935000 -0.78255999 -18.032373
89037500 -0.80557978 -18.374815
89140000 -0.75278729 -18.049959
89242500 -0.76679742 -18.041475
89345000 -0.7750107 -18.73069
89447500 -0.78533256 -18.411642
89550000 -0.75900131 -18.51432
89652500 -0.8070662 -18.566113
89755000 -0.7392624 -18.573166
89857500 -0.77833521 -18.797642
89960000 -0.83886415 -18.811756
90062500 -0.75557595 -18.620449
90165000 -0.77297914 -18.600912
90267500 -0.72432184 -19.077065
90370000 -0.83870381 -18.931488
90472500 -0.78284055 -19.140928
90575000 -0.75231946 -19.1014
90677500 -0.77028751 -19.426245
90780000 -0.8126381 -19.294184
90882500 -0.76243526 -19.787457
90985000 -0.7589553 -19.469656
91087500 -0.79477006 -19.290611
91190000 -0.77139139 -19.355223
91292500 -0.76026571 -19.599186
91395000 -0.80879521 -19.758053
91497500 -0.76746988 -19.711922
91600000 -0.78107542 -19.819107
91702500 -0.74617559 -19.944048
91805000 -0.78841835 -19.982708
91907500 -0.77516961 -20.003029
92010000 -0.80159104 -20.233253
92112500 -0.7730574 -20.278948
92215000 -0.74251372 -20.658918
92317500 -0.72656095 -20.686119
92420000 -0.75983077 -20.604675
92522500 -0.76731384 -20.727959
92625000 -0.75286585 -21.159576
92727500 -0.74711829 -20.629105
92830000 -0.7997787 -21.05813
92932500 -0.70319605 -21.375578
93035000 -0.77371269 -21.094379
93137500 -0.81066406 -20.955288
93240000 -0.84925145 -21.764977
93342500 -0.77012032 -21.652849
93445000 -0.80154198 -21.85125
93547500 -0.83441603 -21.543329
93650000 -0.76768363 -21.900057
93752500 -0.80917901 -21.882982
93855000 -0.80527228 -22.068405
93957500 -0.77603936 -22.090073
94060000 -0.78186917 -22.554602
94162500 -0.80273813 -22.617653
94265000 -0.83247656 -22.769815
94367500 -0.8196131 -22.634907
94470000 -0.78710604 -22.896711
94572500 -0.86134785 -23.069401
94675000 -0.82280093 -22.830227
94777500 -0.84863132 -23.166813
94880000 -0.90708447 -23.052067
94982500 -0.90737617 -23.482061
95085000 -0.83491212 -23.244568
95187500 -0.91406661 -23.836485
95290000 -0.85874766 -23.37002
95392500 -0.88487887 -23.457052
95495000 -0.89859974 -24.094742
95597500 -0.86611158 -24.293192
95700000 -0.88828117 -23.77886
95802500 -0.87900394 -24.382914
95905000 -0.88428324 -23.983196
96007500 -0.88975358 -24.330164
96110000 -0.91499972 -24.696405
96212500 -0.89855218 -24.537277
96315000 -0.90698659 -24.724237
96417500 -0.94204128 -24.72389
96520000 -0.98040891 -24.826694
96622500 -0.95520365 -24.85622
96725000 -0.98123252 -25.100721
96827500 -0.91427505 -25.35603
96930000 -0.9575398 -25.548189
97032500 -1.001611 -25.975002
97135000 -0.97755927 -25.736673
97237500 -0.95567948 -25.763649
97340000 -0.99286276 -25.814684
97442500 -0.9692741 -25.839828
97545000 -0.95351392 -26.351448
97647500 -0.978881 -26.607973
97750000 -0.97513902 -26.329702
97852500 -1.0038366 -26.428354
97955000 -0.97827762 -26.728104
98057500 -0.9970994 -27.257595
98160000 -1.0526735 -27.175955
98262500 -0.99189055 -27.069336
98365000 -1.0745991 -27.235458
98467500 -1.0177814 -27.633804
98570000 -1.0202447 -27.755091
98672500 -1.1010303 -27.860233
98775000 -1.0638064 -28.283808
98877500 -1.0976632 -28.243423
98980000 -1.0413233 -28.56315
99082500 -1.1199377 -28.691792
99185000 -1.1143818 -28.948641
99287500 -1.1325614 -28.669483
99390000 -1.2022388 -29.340027
99492500 -1.1171352 -29.516977
99595000 -1.1905771 -29.508951
99697500 -1.190738 -29.716904
99800000 -1.2499701 -30.050722
99902500 -1.1591674 -29.926245
100005000 -1.1996504 -29.942955
100107500 -1.1885978 -30.662834
100210000 -1.2154393 -30.659241
100312500 -1.3065704 -30.923353
100415000 -1.2998316 -30.956907
100517500 -1.2751874 -31.413765
100620000 -1.3217571 -31.128738
100722500 -1.3560662 -31.698792
100825000 -1.3213007 -31.660679
100927500 -1.3833085 -31.99523
101030000 -1.3771832 -32.264397
101132500 -1.375392 -32.668701
101235000 -1.432308 -32.652477
101337500 -1.4691408 -33.000954
101440000 -1.5000042 -33.338631
101542500 -1.4952059 -33.473942
101645000 -1.5201735 -33.569172
101747500 -1.6054957 -33.755241
101850000 -1.6309971 -34.121395
101952500 -1.648657 -34.230419
102055000 -1.6641308 -34.638988
102157500 -1.6199913 -34.499058
102260000 -1.7403709 -34.564411
102362500 -1.7272513 -35.063896
102465000 -1.7720121 -35.142494
102567500 -1.8229243 -35.445728
102670000 -1.8300253 -35.676544
102772500 -1.8678886 -35.78796
102875000 -1.9412891 -36.454418
102977500 -1.9141747 -36.409534
103080000 -1.9700106 -36.612537
103182500 -2.0042853 -37.141987
103285000 -1.9787391 -37.030132
103387500 -2.0897098 -37.242172
103490000 -2.1376412 -37.674732
103592500 -2.1384866 -37.551666
103695000 -2.2242997 -38.303112
103797500 -2.201874 -38.144867
103900000 -2.2315803 -38.408348
104002500 -2.3250341 -38.813671
104105000 -2.3385701 -39.039276
104207500 -2.3959959 -39.125595
104310000 -2.4343693 -39.517326
104412500 -2.5247116 -39.509785
104515000 -2.6086118 -39.893433
104617500 -2.6293344 -40.43008
104720000 -2.6993561 -40.399143
104822500 -2.7921455 -40.504807
104925000 -2.843977 -40.574482
105027500 -2.9082997 -41.38797
105130000 -2.9170222 -41.383331
105232500 -3.0501847 -41.767231
105335000 -3.1259747 -41.675694
105437500 -3.1864302 -42.003487
105540000 -3.2695072 -42.218544
105642500 -3.3313518 -42.214092
105745000 -3.412626 -42.508144
105847500 -3.4861226 -42.631714
105950000 -3.6129665 -42.964508
106052500 -3.6927273 -43.136997
106155000 -3.7836027 -43.391243
106257500 -3.8822 -43.673397
106360000 -3.9481058 -43.569328
106462500 -4.0671358 -43.691273
106565000 -4.1409087 -43.547104
106667500 -4.2481222 -43.686726
106770000 -4.3655138 -43.590553
106872500 -4.5151682 -43.734581
106975000 -4.5864897 -43.815987
107077500 -4.6922283 -43.784317
107180000 -4.8033795 -43.598587
107282500 -4.9374223 -43.321552
107385000 -5.0418277 -43.564564
107487500 -5.1148758 -43.11684
107590000 -5.2608171 -43.00967
107692500 -5.3639417 -43.067837
107795000 -5.5394096 -42.803604
107897500 -5.6461277 -42.241081
108000000 -5.7470698 -42.264881
