!Agilent Technologies,N5225A,MY51441201,A.09.90.19
!Agilent N5225A: A.09.90.19
!Date: Thursday, May 17, 2018 16:01:11
!Correction: S11(Full 1 Port(1)) 
!S1P File: Measurement: S11:
# Hz S  dB   R 50
87500000 -0.67525476 -13.594378
87602500 -0.78316826 -13.626601
87705000 -0.72562474 -13.369637
87807500 -0.73198205 -13.921071
87910000 -0.69178003 -13.781541
88012500 -0.71249813 -13.817724
88115000 -0.74340504 -14.279231
88217500 -0.79942477 -13.934364
88320000 -0.69864786 -14.103931
88422500 -0.69464815 -13.943791
88525000 -0.77813816 -13.942331
88627500 -0.7656132 -14.425241
88730000 -0.73435903 -14.647304
88832500 -0.75636476 -14.38154
88935000 -0.8178212 -14.375303
89037500 -0.7204985 -14.336646
89140000 -0.7992264 -14.262267
89242500 -0.80359089 -14.647565
89345000 -0.82323933 -15.01823
89447500 -0.77596211 -14.6646
89550000 -0.81035084 -14.680397
89652500 -0.81150424 -14.58563
89755000 -0.8023262 -14.93009
89857500 -0.82342207 -15.032755
89960000 -0.79670841 -14.770175
90062500 -0.73814648 -15.240097
90165000 -0.80774301 -14.937685
90267500 -0.74657696 -15.07725
90370000 -0.82444155 -15.38684
90472500 -0.83862615 -15.29492
90575000 -0.74344808 -15.366124
90677500 -0.81281209 -15.597461
90780000 -0.79005796 -15.373093
90882500 -0.74442405 -16.055983
90985000 -0.77003682 -15.568573
91087500 -0.78154254 -15.641357
91190000 -0.71537495 -15.887864
91292500 -0.71793216 -15.963723
91395000 -0.81066722 -15.878298
91497500 -0.725793 -16.203701
91600000 -0.724509 -16.027933
91702500 -0.7207284 -16.235813
91805000 -0.78742182 -16.226351
91907500 -0.7532149 -16.192867
92010000 -0.76434374 -16.517462
92112500 -0.74710393 -16.344606
92215000 -0.68335456 -16.945076
92317500 -0.69785547 -16.817387
92420000 -0.77967441 -16.917643
92522500 -0.75394613 -17.191292
92625000 -0.74342448 -17.275597
92727500 -0.74831188 -17.211081
92830000 -0.79702407 -17.315826
92932500 -0.73556757 -17.742516
93035000 -0.81702125 -17.654541
93137500 -0.79507774 -17.371538
93240000 -0.80031538 -17.984072
93342500 -0.75190192 -18.185768
93445000 -0.78546154 -18.029425
93547500 -0.82309276 -18.065794
93650000 -0.74486071 -17.735521
93752500 -0.78196514 -18.344263
93855000 -0.77772951 -18.173431
93957500 -0.76980859 -18.146498
94060000 -0.74739838 -18.553764
94162500 -0.79641515 -18.553492
94265000 -0.81697679 -18.65126
94367500 -0.80522192 -18.955368
94470000 -0.84006464 -19.022816
94572500 -0.85806632 -19.18186
94675000 -0.86818957 -19.115553
94777500 -0.86104745 -19.182766
94880000 -0.91277534 -19.371672
94982500 -0.88384998 -19.492975
95085000 -0.84297442 -19.496269
95187500 -0.88128525 -19.845974
95290000 -0.87471247 -19.747923
95392500 -0.86542922 -19.681206
95495000 -0.88602865 -20.079145
95597500 -0.87741798 -20.329147
95700000 -0.91704684 -20.235447
95802500 -0.86190391 -20.167154
95905000 -0.91051841 -20.189028
96007500 -0.92101014 -20.311348
96110000 -0.94035953 -20.229107
96212500 -0.89176518 -20.226503
96315000 -0.93224645 -20.687092
96417500 -0.91381097 -20.661963
96520000 -0.94801635 -20.55801
96622500 -0.95002574 -20.597792
96725000 -0.94163001 -21.225569
96827500 -0.89178073 -21.256817
96930000 -0.94687784 -20.868649
97032500 -0.97574949 -21.689531
97135000 -0.97712207 -21.239672
97237500 -0.97820103 -21.359798
97340000 -0.97463644 -21.707611
97442500 -0.96542561 -21.579212
97545000 -0.96798581 -21.850986
97647500 -0.99070281 -21.95619
97750000 -0.93737632 -22.052265
97852500 -0.96899557 -22.121124
97955000 -0.93178499 -22.466757
98057500 -0.97998315 -22.638891
98160000 -1.0302535 -22.790289
98262500 -0.99801958 -22.832781
98365000 -1.0453638 -22.844004
98467500 -0.97061527 -23.001425
98570000 -0.99314332 -23.121336
98672500 -1.0433581 -23.396732
98775000 -1.0084279 -23.975632
98877500 -1.0082992 -23.601761
98980000 -1.0233344 -24.132029
99082500 -1.066589 -23.858328
99185000 -1.0588362 -24.336935
99287500 -1.0776635 -24.096268
99390000 -1.1078218 -24.22517
99492500 -1.066155 -24.707466
99595000 -1.0770289 -24.746634
99697500 -1.1032091 -24.859072
99800000 -1.1773573 -25.361158
99902500 -1.1207198 -25.123556
100005000 -1.144603 -25.532715
100107500 -1.156291 -25.636372
100210000 -1.1702166 -25.922029
100312500 -1.1889849 -26.027885
100415000 -1.2164119 -26.204897
100517500 -1.2052096 -26.705999
100620000 -1.2239026 -26.302385
100722500 -1.2597178 -26.992983
100825000 -1.2256582 -26.720167
100927500 -1.3103471 -26.914343
101030000 -1.259102 -27.213909
101132500 -1.2788664 -27.33828
101235000 -1.2977434 -27.391985
101337500 -1.3054163 -27.709812
101440000 -1.3759457 -27.931856
101542500 -1.3599153 -28.231152
101645000 -1.4275814 -28.613422
101747500 -1.4043816 -28.509188
101850000 -1.4763519 -28.627457
101952500 -1.4430543 -28.989761
102055000 -1.5180317 -28.930746
102157500 -1.4608192 -28.699162
102260000 -1.532172 -29.308243
102362500 -1.5607085 -29.269119
102465000 -1.5342014 -29.379189
102567500 -1.6165415 -29.70116
102670000 -1.563145 -29.965368
102772500 -1.6140542 -30.049366
102875000 -1.7002672 -30.33338
102977500 -1.6753548 -30.45553
103080000 -1.6755687 -30.700888
103182500 -1.6967319 -30.889807
103285000 -1.7229308 -30.945082
103387500 -1.7665379 -31.184565
103490000 -1.8044337 -31.42831
103592500 -1.8026168 -31.50713
103695000 -1.8573961 -31.960655
103797500 -1.871568 -31.877337
103900000 -1.8669943 -32.067616
104002500 -1.9333043 -32.570522
104105000 -1.9177715 -32.836399
104207500 -1.9337755 -32.705444
104310000 -2.0250375 -32.772049
104412500 -2.0592067 -33.020233
104515000 -2.0412619 -33.235218
104617500 -2.1465113 -33.662575
104720000 -2.1646404 -33.762909
104822500 -2.2139232 -34.070427
104925000 -2.2743721 -34.189339
105027500 -2.2947364 -34.417156
105130000 -2.3195271 -34.711758
105232500 -2.3550489 -35.027992
105335000 -2.385699 -34.961037
105437500 -2.4517884 -35.409397
105540000 -2.5206873 -35.269794
105642500 -2.5355973 -35.567627
105745000 -2.5786216 -35.40023
105847500 -2.6174488 -35.948696
105950000 -2.7327497 -36.207405
106052500 -2.7866249 -36.305012
106155000 -2.8424511 -36.519863
106257500 -2.868885 -36.588383
106360000 -2.9307587 -36.856594
106462500 -2.9286838 -37.039799
106565000 -3.0028541 -37.23177
106667500 -3.0843031 -37.228779
106770000 -3.1489801 -37.314186
106872500 -3.1913953 -37.637863
106975000 -3.2630374 -37.44025
107077500 -3.3010321 -37.756584
107180000 -3.3609059 -37.747959
107282500 -3.4573576 -37.539139
107385000 -3.4909072 -37.909538
107487500 -3.5679412 -37.896156
107590000 -3.6314883 -38.191704
107692500 -3.6648695 -38.429573
107795000 -3.821996 -38.253437
107897500 -3.8378859 -38.092327
108000000 -3.9094219 -38.504173
